Time Stamp,ID,Extended,Dir,Bus,LEN,D1,D2,D3,D4,D5,D6,D7,D8
2230574,0000008F,false,Rx,0,8,FF,FF,00,7D,F2,FF,FF,FF,
2231976,00000197,false,Rx,0,4,37,07,FE,FC,00,00,00,00,
2234109,000001C0,false,Rx,0,8,5F,39,00,40,63,55,55,57,
2234113,00000199,false,Rx,0,6,79,F3,EB,7E,00,20,00,00,
2234115,0000019A,false,Rx,0,6,E4,F3,4A,7F,00,10,00,00,
2235658,000000CA,false,Rx,0,8,33,26,00,00,00,00,FD,F7,
2235662,00000349,false,Rx,0,5,FE,FF,FE,FF,FF,00,00,00,
2235664,000003D7,false,Rx,0,8,A6,04,4C,81,3C,8E,D1,14,
2237212,00000510,false,Rx,0,8,40,10,00,02,03,92,01,00,
2237214,000000D9,false,Rx,0,8,1E,F0,00,10,00,F0,7F,CF,
2238667,000000A5,false,Rx,0,8,75,00,FF,F7,FF,00,00,C1,
2238670,00000095,false,Rx,0,8,64,68,96,00,00,F0,00,00,
2238672,000001CE,false,Rx,0,8,64,68,96,00,00,F0,00,00,
2238674,000000A7,false,Rx,0,7,3A,F0,FF,F0,FF,FF,0F,00,
2238676,000000DC,false,Rx,0,6,37,00,22,D0,07,EE,00,00,
2239456,000001CF,false,Rx,0,8,64,68,96,00,00,F0,00,00,
2239459,00000173,false,Rx,0,8,4D,F1,00,02,20,00,D2,1F,
2239460,000001A1,false,Rx,0,5,94,C9,00,00,81,00,00,00,
2242844,00000293,false,Rx,0,5,AC,AE,FE,FF,14,00,00,00,
2242846,00000083,false,Rx,0,8,FF,7F,FF,7F,FF,7F,FF,7F,
2242848,00000254,false,Rx,0,8,FF,7F,FF,7F,FF,7F,FF,7F,
2244687,0000019F,false,Rx,0,6,51,F4,FA,7F,00,10,00,00,
2244689,0000036F,false,Rx,0,5,9A,F8,FE,FF,14,00,00,00,
2244691,000001DB,false,Rx,0,8,64,00,0A,6E,C0,FF,00,FF,
2245828,000001E1,false,Rx,0,6,61,F3,00,FF,FF,FF,00,00,
2246941,000002BB,false,Rx,0,5,7B,FB,3F,00,F2,00,00,00,
2248021,000000FA,false,Rx,0,8,02,C0,08,00,C8,07,D0,D7,
2248023,000000D9,false,Rx,0,8,43,F1,00,10,00,F0,7F,CF,
2249482,000002AE,false,Rx,0,8,FF,00,FF,64,FF,AF,64,00,
2249484,00000201,false,Rx,0,8,08,57,39,66,00,FF,F0,FF,
2249486,000002C4,false,Rx,0,8,00,00,00,FF,FF,00,00,0F,
2249488,0000029D,false,Rx,0,8,FF,FF,FF,FF,0F,FF,FF,FF,
2252813,0000028E,false,Rx,0,5,72,DE,FE,FF,14,00,00,00,
2254943,00000199,false,Rx,0,6,18,F5,EB,7E,00,20,00,00,
2254945,0000019A,false,Rx,0,6,3E,F5,40,7F,00,10,00,00,
2255742,00000096,false,Rx,0,8,64,00,54,AA,01,FF,FF,FF,
2257778,00000294,false,Rx,0,5,73,C7,FE,FF,14,00,00,00,
2257781,00000081,false,Rx,0,8,06,10,00,06,06,05,05,FF,
2257783,000000A5,false,Rx,0,8,28,01,FF,F7,FF,00,00,C1,
2257784,000000D9,false,Rx,0,8,A4,F2,00,10,00,F0,7F,CF,
2258883,000000A7,false,Rx,0,7,7C,F1,FF,F0,FF,FF,0F,00,
2258887,000000DC,false,Rx,0,6,5D,01,22,D0,07,EE,00,00,
2258888,00000302,false,Rx,0,7,E1,F5,B6,6F,01,00,00,00,
2258890,000003A1,false,Rx,0,8,00,01,00,03,00,C0,00,F0,
2260348,000001A1,false,Rx,0,5,2E,CA,00,00,81,00,00,00,
2261930,00000197,false,Rx,0,4,B1,08,FE,FC,00,00,00,00,
2263251,00000083,false,Rx,0,8,FF,7F,FF,7F,FF,7F,FF,7F,
2263254,00000254,false,Rx,0,8,FF,7F,FF,7F,FF,7F,FF,7F,
2264666,0000019F,false,Rx,0,6,FF,F6,09,80,00,10,00,00,
2264669,000002E0,false,Rx,0,6,36,FB,75,40,24,FF,00,00,
2265807,00000065,false,Rx,0,8,68,87,30,03,FF,FF,FF,FF,
2268486,000000FA,false,Rx,0,8,03,10,08,02,38,59,28,CA,
2268489,000000D9,false,Rx,0,8,F9,F3,00,10,00,F0,7F,CF,
2268491,000001AE,false,Rx,0,3,07,65,1A,00,00,00,00,00,
2268493,000001E4,false,Rx,0,8,62,0A,61,61,11,11,11,11,
2268495,00000145,false,Rx,0,3,C8,9F,F0,00,00,00,00,00,
2269071,000002AE,false,Rx,0,8,FF,00,FF,64,FF,AF,64,00,
2269073,00000284,false,Rx,0,8,C8,80,0C,FF,FF,FF,FF,0F,
2269075,000002EB,false,Rx,0,8,5D,FE,11,11,11,62,11,FF,
2270173,000002A7,false,Rx,0,5,A8,F2,FE,FF,14,00,00,00,
2271095,0000026C,false,Rx,0,8,79,8A,F1,FF,FF,FF,FF,FF,
2271097,0000008F,false,Rx,0,8,FF,FF,00,7D,F2,FF,FF,FF,
2273703,00000412,false,Rx,0,4,03,50,00,00,00,00,00,00,
2273705,00000414,false,Rx,0,4,03,54,00,00,00,00,00,00,
2273708,000001C0,false,Rx,0,8,B8,3A,00,40,63,55,55,57,
2273709,00000376,false,Rx,0,3,25,19,11,00,00,00,00,00,
2273711,00000199,false,Rx,0,6,77,F7,E1,7E,00,20,00,00,
2274724,0000019A,false,Rx,0,6,37,F7,3B,7F,00,10,00,00,
2274727,000002F4,false,Rx,0,2,00,00,00,00,00,00,00,00,
2275700,00000314,false,Rx,0,5,50,80,1D,FF,FF,00,00,00,
2275703,00000094,false,Rx,0,8,03,50,00,00,FF,FF,FF,FF,
2278727,000000D9,false,Rx,0,8,77,F4,00,10,00,F0,7F,CF,
2278730,000000A5,false,Rx,0,8,CF,02,FF,F7,FF,00,00,C1,
2278733,000000A7,false,Rx,0,7,B6,F2,FF,F0,FF,FF,0F,00,
2278734,000000DC,false,Rx,0,6,E3,02,22,D0,07,EE,00,00,
2279670,00000163,false,Rx,0,8,C7,F7,04,25,13,15,04,F5,
2279673,000001A1,false,Rx,0,5,B3,CB,00,00,81,00,00,00,
2283952,00000083,false,Rx,0,8,FF,7F,FF,7F,FF,7F,FF,7F,
2283955,00000254,false,Rx,0,8,FF,7F,FF,7F,FF,7F,FF,7F,
2284336,0000019F,false,Rx,0,6,40,F8,FF,7F,00,10,00,00,
2284339,000001DB,false,Rx,0,8,64,00,0A,6E,C0,FF,00,FF,
2285883,0000012F,false,Rx,0,8,5A,72,FA,DD,FF,FF,FF,00,
2285887,00000096,false,Rx,0,8,64,00,54,AA,01,FF,FF,FF,
2288180,000000D9,false,Rx,0,8,2A,F5,00,10,00,F0,7F,CF,
2288183,000000FA,false,Rx,0,8,05,86,12,08,76,76,76,00,
2288185,00000287,false,Rx,0,8,C1,0C,FE,F0,3D,FF,30,FD,
2288186,000002AE,false,Rx,0,8,FF,00,FF,64,FF,AF,64,00,
2289671,00000173,false,Rx,0,8,C3,F6,00,02,20,00,D2,1F,
2291971,000000AB,false,Rx,0,8,99,F4,04,00,00,D0,FF,FF,
2291974,00000197,false,Rx,0,4,3E,09,FE,FC,00,00,00,00,
2291976,00000276,false,Rx,0,8,C0,00,00,00,00,C0,FF,FF,
2294479,00000199,false,Rx,0,6,61,F9,E1,7E,00,20,00,00,
2294483,0000019A,false,Rx,0,6,6F,F9,3F,7F,00,10,00,00,
2295846,00000220,false,Rx,0,8,63,AE,E5,FF,FF,FF,FF,FF,
2298043,000000D9,false,Rx,0,8,CD,F6,00,10,00,F0,7F,CF,
2298046,000000A5,false,Rx,0,8,92,03,FF,F7,FF,00,00,C1,
2298049,00000095,false,Rx,0,8,64,68,96,00,00,F0,00,00,
2298050,000001CE,false,Rx,0,8,64,68,96,00,00,F0,00,00,
2298052,000000A7,false,Rx,0,7,F0,F3,FF,F0,FF,FF,0F,00,
2299139,000000DC,false,Rx,0,6,89,03,22,D0,07,EE,00,00,
2299142,000001CF,false,Rx,0,8,64,68,96,00,00,F0,00,00,
2299143,00000201,false,Rx,0,8,1D,57,4F,66,00,FF,F0,FF,
2299146,00000302,false,Rx,0,7,EE,F9,B6,6F,01,00,00,00,
2299147,000003FD,false,Rx,0,5,16,05,20,FF,FF,00,00,00,
2300578,000001A1,false,Rx,0,5,47,CC,00,00,81,00,00,00,
2303266,00000083,false,Rx,0,8,FF,7F,FF,7F,FF,7F,FF,7F,
2303268,00000254,false,Rx,0,8,FF,7F,FF,7F,FF,7F,FF,7F,
2304446,0000019F,false,Rx,0,6,C8,FA,07,80,00,10,00,00,
2305771,0000003C,false,Rx,0,8,2C,AC,03,92,01,00,2A,FF,
2307929,0000031C,false,Rx,0,8,FF,3F,FF,FF,09,00,40,FD,
2307933,000000FA,false,Rx,0,8,05,FD,FD,FD,FD,FD,FD,E9,
2307935,000000D9,false,Rx,0,8,90,F7,00,10,00,F0,7F,CF,
2307936,000002AE,false,Rx,0,8,FF,00,FF,64,FF,AF,64,00,
2309685,00000265,false,Rx,0,8,F7,66,88,13,70,30,FF,FF,
2309688,000001DD,false,Rx,0,8,00,00,00,F0,FF,FF,FF,FF,
2310701,000001C3,false,Rx,0,8,7E,43,00,00,00,00,00,00,
2310703,0000008F,false,Rx,0,8,FF,FF,00,7D,F2,FF,FF,FF,
2313522,0000021D,false,Rx,0,8,00,00,00,FF,FF,FF,FF,FF,
2313555,00000203,false,Rx,0,8,CA,83,00,FF,FF,FF,00,C0,
2314110,000001C0,false,Rx,0,8,E5,3B,00,40,63,55,55,57,
2314113,00000199,false,Rx,0,6,B3,FB,D7,7E,00,20,00,00,
2314115,0000019A,false,Rx,0,6,F5,FB,3B,7F,00,10,00,00,
2315736,000000CA,false,Rx,0,8,6E,27,00,00,00,00,FD,F7,
2315739,00000096,false,Rx,0,8,64,00,54,AA,01,FF,FF,FF,
2316854,000001E4,false,Rx,0,8,3F,0B,61,61,11,11,11,11,
2316857,000002EB,false,Rx,0,8,5C,F0,11,11,11,62,11,FF,
2318514,000000D9,false,Rx,0,8,CC,F8,00,10,00,F0,7F,CF,
2318516,000000A5,false,Rx,0,8,1C,04,FF,F7,FF,00,00,C1,
2318518,000000A7,false,Rx,0,7,3F,F4,FF,F0,FF,FF,0F,00,
2318519,000000DC,false,Rx,0,6,82,04,22,D0,07,EE,00,00,
2319680,0000032B,false,Rx,0,8,B5,00,AB,37,FF,FF,FF,FF,
2319683,000001A1,false,Rx,0,5,DA,CD,00,00,81,00,00,00,
2320714,000003AF,false,Rx,0,8,50,FD,26,FF,FF,FF,FF,FF,
2320716,00000384,false,Rx,0,8,FF,FF,F7,FF,FF,FF,FF,FF,
2321820,000005E0,false,Rx,0,8,8C,01,00,00,00,00,00,FF,
2321822,00000197,false,Rx,0,4,B2,0A,FE,FC,00,00,00,00,
2322962,00000296,false,Rx,0,5,22,E0,FE,FF,14,00,00,00,
2322965,00000083,false,Rx,0,8,FF,7F,FF,7F,FF,7F,FF,7F,
2322966,00000254,false,Rx,0,8,FF,7F,FF,7F,FF,7F,FF,7F,
2324603,000001BB,false,Rx,0,8,FF,FF,00,FF,FF,FF,FF,FF,
2324608,0000019F,false,Rx,0,6,D2,FC,FD,7F,00,10,00,00,
2324610,0000036E,false,Rx,0,5,55,F8,FE,FF,14,00,00,00,
2324612,000001DB,false,Rx,0,8,64,00,0A,6E,C0,FF,00,FF,
2328394,000000FA,false,Rx,0,8,00,54,00,E0,7F,01,0A,C4,
2328397,000000D9,false,Rx,0,8,91,F9,00,10,00,F0,7F,CF,
2328398,000002AE,false,Rx,0,8,FF,00,FF,64,FF,AF,64,00,
2329657,000001B3,false,Rx,0,8,C4,12,00,03,00,FF,FF,8E,
2329660,0000043D,false,Rx,0,8,0A,D4,CF,68,51,1B,80,61,
2334659,00000199,false,Rx,0,6,D4,FD,E1,7E,00,20,00,00,
2334662,0000019A,false,Rx,0,6,94,FD,3B,7F,00,10,00,00,
2337305,00000510,false,Rx,0,8,40,10,00,02,03,92,01,00,
2337307,000000D9,false,Rx,0,8,76,FA,00,10,00,F0,7F,CF,
2338707,000000A5,false,Rx,0,8,41,05,FF,F7,FF,00,00,C1,
2338710,000000A7,false,Rx,0,7,79,F5,FF,F0,FF,FF,0F,00,
2338711,000000DC,false,Rx,0,6,E8,05,22,D0,07,EE,00,00,
2339686,00000173,false,Rx,0,8,25,FB,00,02,20,00,D2,1F,
2339689,00000302,false,Rx,0,7,EB,FD,B6,6F,01,00,00,00,
2339690,000001A1,false,Rx,0,5,60,CE,00,00,81,00,00,00,
2343716,00000083,false,Rx,0,8,FF,7F,FF,7F,FF,7F,FF,7F,
2343718,00000254,false,Rx,0,8,FF,7F,FF,7F,FF,7F,FF,7F,
2344669,0000019F,false,Rx,0,6,21,FE,FF,7F,00,10,00,00,
2345803,000002A5,false,Rx,0,2,FE,FE,00,00,00,00,00,00,
2345806,00000096,false,Rx,0,8,64,00,54,AA,01,FF,FF,FF,
2346876,000002BB,false,Rx,0,5,8F,FC,3F,00,F2,00,00,00,
2346878,0000030C,false,Rx,0,5,2F,FE,FE,FF,14,00,00,00,
2348589,000000D9,false,Rx,0,8,2B,FB,00,10,00,F0,7F,CF,
2348591,000000FA,false,Rx,0,8,02,C0,08,00,C8,07,D0,D7,
2348593,000002AE,false,Rx,0,8,FF,00,FF,64,FF,AF,64,00,
2349649,00000201,false,Rx,0,8,33,57,64,66,00,FF,F0,FF,
2349651,000002C4,false,Rx,0,8,00,00,00,FF,FF,00,00,0F,
2349653,0000029D,false,Rx,0,8,FF,FF,FF,FF,0F,FF,FF,FF,
2349654,000002A7,false,Rx,0,5,35,F3,FE,FF,14,00,00,00,
2351264,0000008F,false,Rx,0,8,FF,FF,00,7D,F2,FF,FF,FF,
2351267,00000197,false,Rx,0,4,3D,0B,FE,FC,00,00,00,00,
2354126,000001C0,false,Rx,0,8,6B,3C,00,40,63,55,55,57,
2354129,00000199,false,Rx,0,6,7C,F0,E1,7E,00,20,00,00,
2354131,0000019A,false,Rx,0,6,32,F0,45,7F,00,10,00,00,
2358694,000000D9,false,Rx,0,8,A5,FC,00,10,00,F0,7F,CF,
2358696,000000A5,false,Rx,0,8,A6,06,FF,F7,FF,00,00,C1,
2358698,00000095,false,Rx,0,8,64,68,96,00,00,F0,00,00,
2358700,000001CE,false,Rx,0,8,64,68,96,00,00,F0,00,00,
2358701,000000A7,false,Rx,0,7,B3,F6,FF,F0,FF,FF,0F,00,
2359139,000000DC,false,Rx,0,6,56,06,22,D0,07,EE,00,00,
2359142,000001CF,false,Rx,0,8,64,68,96,00,00,F0,00,00,
2360297,000001A1,false,Rx,0,5,95,C0,00,00,81,00,00,00,
2363718,00000083,false,Rx,0,8,FF,7F,FF,7F,FF,7F,FF,7F,
2363720,00000254,false,Rx,0,8,FF,7F,FF,7F,FF,7F,FF,7F,
2364665,0000019F,false,Rx,0,6,5D,F1,FF,7F,00,10,00,00,
2364668,000001DB,false,Rx,0,8,64,00,0A,6E,C0,FF,00,FF,
2364670,000002E0,false,Rx,0,6,3D,FC,75,40,24,FF,00,00,
2365856,00000065,false,Rx,0,8,34,88,30,03,FF,FF,FF,FF,
2368688,000000FA,false,Rx,0,8,03,10,08,02,38,59,28,CA,
2368690,000000D9,false,Rx,0,8,F8,FD,00,10,00,F0,7F,CF,
2368693,000002AE,false,Rx,0,8,FF,00,FF,64,FF,AF,64,00,
2368694,000001AE,false,Rx,0,3,07,65,1A,00,00,00,00,00,
2369141,000001E4,false,Rx,0,8,B1,0C,61,61,11,11,11,11,
2369144,00000284,false,Rx,0,8,C8,80,0C,FF,FF,FF,FF,0F,
2369146,000002EB,false,Rx,0,8,01,F1,11,11,11,62,11,FF,
2371319,000000C0,false,Rx,0,2,FD,40,00,00,00,00,00,00,
2373988,00000376,false,Rx,0,3,F1,1A,11,00,00,00,00,00,
2373991,00000199,false,Rx,0,6,A8,F2,E1,7E,00,20,00,00,
2373992,0000019A,false,Rx,0,6,E8,F2,3B,7F,00,10,00,00,
2375849,00000096,false,Rx,0,8,64,00,54,AA,01,FF,FF,FF,
2378665,000000D9,false,Rx,0,8,1F,FE,00,10,00,F0,7F,CF,
2378668,000000A5,false,Rx,0,8,FB,07,FF,F7,FF,00,00,C1,
2378669,000000A7,false,Rx,0,7,F5,F7,FF,F0,FF,FF,0F,00,
2378671,000000DC,false,Rx,0,6,3C,07,22,D0,07,EE,00,00,
2379678,00000163,false,Rx,0,8,F3,F2,04,25,13,15,04,F5,
2379681,00000302,false,Rx,0,7,2E,F2,B6,6F,01,00,00,00,
2379683,000001A1,false,Rx,0,5,08,C1,00,00,81,00,00,00,
2381915,00000197,false,Rx,0,4,B7,0C,FE,FC,00,00,00,00,
2383565,00000083,false,Rx,0,8,FF,7F,FF,7F,FF,7F,FF,7F,
2383568,00000254,false,Rx,0,8,FF,7F,FF,7F,FF,7F,FF,7F,
2384687,0000019F,false,Rx,0,6,AE,F3,FD,7F,00,10,00,00,
2384690,00000301,false,Rx,0,7,07,C3,04,72,FF,FF,2F,00,
2385807,0000012F,false,Rx,0,8,07,73,FA,DD,FF,FF,FF,00,
2388696,000000FA,false,Rx,0,8,05,86,12,08,76,76,76,00,
2388699,000000D9,false,Rx,0,8,1E,F0,00,10,00,F0,7F,CF,
2389027,000002AE,false,Rx,0,8,FF,00,FF,64,FF,AF,64,00,
2389030,000003E9,false,Rx,0,8,FF,FF,0F,FF,FF,FF,FF,FF,
2389033,00000173,false,Rx,0,8,4D,F1,00,02,20,00,D2,1F,
2391306,0000008F,false,Rx,0,8,FF,FF,00,7D,F2,FF,FF,FF,
2394169,000001C0,false,Rx,0,8,36,3D,00,40,63,55,55,57,
2394171,00000199,false,Rx,0,6,C9,F4,E1,7E,00,20,00,00,
2394173,0000019A,false,Rx,0,6,54,F4,40,7F,00,10,00,00,
2395699,000000CA,false,Rx,0,8,32,28,00,00,00,00,FD,F7,
2397769,0000037F,false,Rx,0,2,FF,F0,00,00,00,00,00,00,
2397771,00000297,false,Rx,0,7,B6,F0,F0,E0,F0,F0,A8,00,
2397773,000000D9,false,Rx,0,8,43,F1,00,10,00,F0,7F,CF,
2397774,000000A5,false,Rx,0,8,A7,08,FF,F7,FF,00,00,C1,
2398933,000000A7,false,Rx,0,7,30,F8,FF,F0,FF,FF,0F,00,
2398936,000000DC,false,Rx,0,6,40,08,22,D0,07,EE,00,00,
2398938,000003FD,false,Rx,0,5,AC,06,20,FF,FF,00,00,00,
2398940,00000201,false,Rx,0,8,48,57,79,66,00,FF,F0,FF,
2398942,000003B4,false,Rx,0,8,FF,FF,FC,FF,F8,F8,00,FF,
2400336,000001A1,false,Rx,0,5,B2,C2,00,00,81,00,00,00,
2403658,00000083,false,Rx,0,8,FF,7F,FF,7F,FF,7F,FF,7F,
2403661,00000254,false,Rx,0,8,FF,7F,FF,7F,FF,7F,FF,7F,
2404444,0000019F,false,Rx,0,6,B4,F5,07,80,00,10,00,00,
2404447,0000036F,false,Rx,0,5,07,F9,FE,FF,14,00,00,00,
2404448,000001DB,false,Rx,0,8,64,00,0A,6E,C0,FF,00,FF,
2405824,0000003C,false,Rx,0,8,71,AD,03,92,01,00,2A,FF,
2405827,00000096,false,Rx,0,8,64,00,54,AA,01,FF,FF,FF,
2407933,000000FA,false,Rx,0,8,05,FD,FD,FD,FD,FD,FD,E9,
2407936,000000D9,false,Rx,0,8,A4,F2,00,10,00,F0,7F,CF,
2409052,000002AE,false,Rx,0,8,FF,00,FF,64,FF,AF,64,00,
2409054,000001C8,false,Rx,0,8,00,00,00,00,F0,31,FF,FF,
2409056,00000265,false,Rx,0,8,F7,66,88,13,70,30,FF,FF,
2409058,00000340,false,Rx,0,2,F3,FF,00,00,00,00,00,00,
2409059,0000042B,false,Rx,0,4,95,1F,72,30,00,00,00,00,
2411970,00000197,false,Rx,0,4,38,0D,FE,FC,00,00,00,00,
2414443,00000199,false,Rx,0,6,1D,F6,E1,7E,00,20,00,00,
2414446,0000019A,false,Rx,0,6,3B,F6,4A,7F,00,10,00,00,
2416691,000002EB,false,Rx,0,8,E6,F2,11,11,11,62,11,FF,
2416694,000001E4,false,Rx,0,8,EC,0D,61,61,11,11,11,11,
2418039,000000D9,false,Rx,0,8,F9,F3,00,10,00,F0,7F,CF,
2418042,000000A5,false,Rx,0,8,FA,09,FF,F7,FF,00,00,C1,
2418044,00000095,false,Rx,0,8,64,68,96,00,00,F0,00,00,
2418045,000001CE,false,Rx,0,8,64,68,96,00,00,F0,00,00,
2418047,000000A7,false,Rx,0,7,76,F9,FF,F0,FF,FF,0F,00,
2419431,000000DC,false,Rx,0,6,2A,09,22,D0,07,EE,00,00,
2419434,000001CF,false,Rx,0,8,64,68,96,00,00,F0,00,00,
2419437,00000302,false,Rx,0,7,2B,F6,B6,6F,01,00,00,00,
2419439,0000032B,false,Rx,0,8,B5,00,AC,37,FF,FF,FF,FF,
2420671,000001A1,false,Rx,0,5,2F,C3,00,00,81,00,00,00,
2423298,00000083,false,Rx,0,8,FF,7F,FF,7F,FF,7F,FF,7F,
2423301,00000254,false,Rx,0,8,FF,7F,FF,7F,FF,7F,FF,7F,
2424703,0000019F,false,Rx,0,6,95,F7,09,80,00,10,00,00,
2428037,000000FA,false,Rx,0,8,00,64,00,E0,7F,01,0A,C4,
2428040,000000D9,false,Rx,0,8,77,F4,00,10,00,F0,7F,CF,
2429737,000002AE,false,Rx,0,8,FF,00,FF,64,FF,AF,64,00,
2429740,000001B3,false,Rx,0,8,C4,12,00,04,00,FF,FF,8F,
2430077,000002A7,false,Rx,0,5,C1,F4,FE,FF,14,00,00,00,
2430080,0000008F,false,Rx,0,8,FF,FF,00,7D,F2,FF,FF,FF,
2434221,000001C0,false,Rx,0,8,D1,3E,00,40,63,55,55,57,
2434224,00000199,false,Rx,0,6,0B,F8,E1,7E,00,20,00,00,
2434225,0000019A,false,Rx,0,6,2D,F8,4A,7F,00,10,00,00,
2435702,00000314,false,Rx,0,5,50,80,1D,FF,FF,00,00,00,
2435706,00000096,false,Rx,0,8,64,00,54,AA,01,FF,FF,FF,
2435708,00000349,false,Rx,0,5,FE,FF,FE,FF,FF,00,00,00,
2437309,00000510,false,Rx,0,8,40,10,00,02,03,92,01,00,
2437313,000000D9,false,Rx,0,8,2A,F5,00,10,00,F0,7F,CF,
2438770,000000A5,false,Rx,0,8,1D,0A,FF,F7,FF,00,00,C1,
2438773,000000A7,false,Rx,0,7,BC,FA,FF,F0,FF,FF,0F,00,
2438774,000000DC,false,Rx,0,6,94,0A,22,D0,07,EE,00,00,
2439672,00000173,false,Rx,0,8,C3,F6,00,02,20,00,D2,1F,
2439675,000001A1,false,Rx,0,5,DB,C4,00,00,81,00,00,00,
2442643,00000197,false,Rx,0,4,B4,0E,FE,FC,00,00,00,00,
2443698,00000083,false,Rx,0,8,FF,7F,FF,7F,FF,7F,FF,7F,
2443700,00000254,false,Rx,0,8,FF,7F,FF,7F,FF,7F,FF,7F,
2443703,00000416,false,Rx,0,8,9A,00,00,80,11,02,62,F2,
2444675,0000019F,false,Rx,0,6,38,F9,03,80,00,10,00,00,
2444679,000001DB,false,Rx,0,8,64,00,0A,6E,C0,FF,00,FF,
2445764,000001E1,false,Rx,0,6,6A,F4,00,FF,FF,FF,00,00,
2446816,000002BB,false,Rx,0,5,12,FD,3F,00,F2,00,00,00,
2446819,00000540,false,Rx,0,8,40,40,00,00,00,00,01,00,
2448684,000000D9,false,Rx,0,8,CD,F6,00,10,00,F0,7F,CF,
2448687,000000FA,false,Rx,0,8,02,C0,08,00,C8,07,D0,D7,
2448689,000002AE,false,Rx,0,8,FF,00,FF,64,FF,AF,64,00,
2449684,00000201,false,Rx,0,8,5D,57,8F,66,00,FF,F0,FF,
2449687,000002C4,false,Rx,0,8,00,00,00,FF,FF,00,00,0F,
2451311,0000029D,false,Rx,0,8,FF,FF,FF,FF,0F,FF,FF,FF,
2454662,00000199,false,Rx,0,6,DF,FA,E1,7E,00,20,00,00,
2454665,0000019A,false,Rx,0,6,91,FA,45,7F,00,10,00,00,
2458099,000000D9,false,Rx,0,8,90,F7,00,10,00,F0,7F,CF,
2458101,000000A5,false,Rx,0,8,40,0B,FF,F7,FF,00,00,C1,
2458103,000000A7,false,Rx,0,7,FA,FB,FF,F0,FF,FF,0F,00,
2459043,000000DC,false,Rx,0,6,FE,0B,22,D0,07,EE,00,00,
2459045,00000302,false,Rx,0,7,24,FA,B6,6F,01,00,00,00,
2459047,000003A1,false,Rx,0,8,00,01,00,03,00,C0,00,F0,
2460264,000001A1,false,Rx,0,5,46,C5,00,00,81,00,00,00,
2460266,0000026B,false,Rx,0,8,BF,15,FD,FF,FF,FF,FF,FF,
2463670,00000083,false,Rx,0,8,FF,7F,FF,7F,FF,7F,FF,7F,
2463673,00000254,false,Rx,0,8,FF,7F,FF,7F,FF,7F,FF,7F,
2464682,0000019F,false,Rx,0,6,57,FB,09,80,00,10,00,00,
2464684,000002E0,false,Rx,0,6,57,FD,75,40,24,FF,00,00,
2465862,00000065,false,Rx,0,8,69,89,30,03,FF,FF,FF,FF,
2465865,00000096,false,Rx,0,8,64,00,54,AA,01,FF,FF,FF,
2467800,000001AE,false,Rx,0,3,07,65,1A,00,00,00,00,00,
2467802,000000FA,false,Rx,0,8,03,10,08,02,38,59,28,CA,
2467804,000000D9,false,Rx,0,8,CC,F8,00,10,00,F0,7F,CF,
2467806,000001E4,false,Rx,0,8,0B,0E,61,61,11,11,11,11,
2467807,00000145,false,Rx,0,3,C8,9F,F0,00,00,00,00,00,
2468866,000002AE,false,Rx,0,8,FF,00,FF,64,FF,AF,64,00,
2468869,000002EB,false,Rx,0,8,BB,F3,11,11,11,62,11,FF,
2468871,00000284,false,Rx,0,8,C8,80,0C,FF,FF,FF,FF,0F,
2468872,0000019D,false,Rx,0,8,0A,3E,92,02,FF,FF,FF,FF,
2468874,000003D8,false,Rx,0,8,CF,C9,FF,FF,FF,FF,FF,FF,
2471357,0000008F,false,Rx,0,8,FF,FF,00,7D,F2,FF,FF,FF,
2471360,00000197,false,Rx,0,4,BD,00,FE,FC,00,00,00,00,
2474113,000001C0,false,Rx,0,8,D0,30,00,40,63,55,55,57,
2474116,000002F7,false,Rx,0,6,02,9B,8A,09,11,F2,00,00,
2474118,00000199,false,Rx,0,6,BE,FC,E1,7E,00,20,00,00,
2474120,0000019A,false,Rx,0,6,63,FC,3A,7F,00,10,00,00,
2474122,000000CA,false,Rx,0,8,6F,29,00,00,00,00,FD,F7,
2474124,00000376,false,Rx,0,3,BD,1B,11,00,00,00,00,00,
2475369,000005C0,false,Rx,0,8,F9,33,F1,FF,FF,FF,FF,FF,
2475371,00000346,false,Rx,0,4,D0,50,21,FF,00,00,00,00,
2475373,000005C0,false,Rx,0,8,FA,33,C1,FF,FC,CF,FF,C0,
2475375,000002F0,false,Rx,0,5,75,D5,40,D0,00,00,00,00,
2478073,000000D9,false,Rx,0,8,91,F9,00,10,00,F0,7F,CF,
2478076,000000A5,false,Rx,0,8,CE,0C,FF,F7,FF,00,00,C1,
2478078,00000095,false,Rx,0,8,64,68,96,00,00,F0,00,00,
2478080,000000A7,false,Rx,0,7,35,FC,FF,F0,FF,FF,0F,00,
2478081,000001CE,false,Rx,0,8,64,68,96,00,00,F0,00,00,
2479196,000000DC,false,Rx,0,6,F5,0C,22,D0,07,EE,00,00,
2479199,000001CF,false,Rx,0,8,64,68,96,00,00,F0,00,00,
2479201,00000163,false,Rx,0,8,F2,FC,04,25,13,15,04,F5,
2480236,000001A1,false,Rx,0,5,FC,C6,00,00,81,00,00,00,
2483342,00000083,false,Rx,0,8,FF,7F,FF,7F,FF,7F,FF,7F,
2483344,00000254,false,Rx,0,8,FF,7F,FF,7F,FF,7F,FF,7F,
2484383,0000019F,false,Rx,0,6,B8,FD,FD,7F,00,10,00,00,
2484386,0000036E,false,Rx,0,5,C8,F9,FE,FF,14,00,00,00,
2484388,000001DB,false,Rx,0,8,64,00,0A,6E,C0,FF,00,FF,
2485847,0000012F,false,Rx,0,8,89,74,FA,DD,FF,FF,FF,00,
2487965,000000FA,false,Rx,0,8,05,86,12,08,76,76,76,00,
2487968,000000D9,false,Rx,0,8,76,FA,00,10,00,F0,7F,CF,
2489036,000002AE,false,Rx,0,8,FF,00,FF,64,FF,AF,64,00,
2489038,00000173,false,Rx,0,8,25,FB,00,02,20,00,D2,1F,
2491949,000000AB,false,Rx,0,8,C4,F5,04,00,00,D0,FF,FF,
2491951,00000276,false,Rx,0,8,C0,00,00,00,00,C0,FF,FF,
2493482,00000200,false,Rx,0,8,01,00,74,FF,FF,00,FF,C0,
2493485,00000199,false,Rx,0,6,6A,FE,E1,7E,00,20,00,00,
2494618,0000019A,false,Rx,0,6,F7,FE,40,7F,00,10,00,00,
2495658,000001EE,false,Rx,0,2,00,FC,00,00,00,00,00,00,
2495661,00000096,false,Rx,0,8,64,00,54,AA,01,FF,FF,FF,
2498147,000000D9,false,Rx,0,8,2B,FB,00,10,00,F0,7F,CF,
2498149,000000A5,false,Rx,0,8,93,0D,FF,F7,FF,00,00,C1,
2498151,000000A7,false,Rx,0,7,73,FD,FF,F0,FF,FF,0F,00,
2498153,000000DC,false,Rx,0,6,9F,0D,22,D0,07,EE,00,00,
2499318,00000201,false,Rx,0,8,73,57,A4,66,00,FF,F0,FF,
2499321,00000302,false,Rx,0,7,21,FE,B6,6F,01,00,00,00,
2499323,000003FD,false,Rx,0,5,31,07,20,FF,FF,00,00,00,
2500378,000001A1,false,Rx,0,5,61,C7,00,00,81,00,00,00,
2501974,00000197,false,Rx,0,4,32,01,FE,FC,00,00,00,00,
2503338,00000083,false,Rx,0,8,FF,7F,FF,7F,FF,7F,FF,7F,
2503342,00000254,false,Rx,0,8,FF,7F,FF,7F,FF,7F,FF,7F,
2504379,0000019F,false,Rx,0,6,4C,F0,05,80,00,10,00,00,
2505802,0000003C,false,Rx,0,8,96,AE,03,92,01,00,2A,FF,
2507925,0000031C,false,Rx,0,8,FF,3F,FF,FF,09,00,40,FD,
2507927,0000030C,false,Rx,0,5,DA,F0,FE,FF,14,00,00,00,
2507929,000000D9,false,Rx,0,8,A5,FC,00,10,00,F0,7F,CF,
2507931,000000FA,false,Rx,0,8,05,FD,FD,FD,FD,FD,FD,E9,
2509052,000002AE,false,Rx,0,8,FF,00,FF,64,FF,AF,64,00,
2509055,00000265,false,Rx,0,8,F7,66,88,13,70,30,FF,FF,
2510162,000002A7,false,Rx,0,5,5C,F5,FE,FF,14,00,00,00,
2510165,000001C3,false,Rx,0,8,F0,44,00,00,00,00,00,00,
2510166,000001DD,false,Rx,0,8,00,00,00,F0,FF,FF,FF,FF,
2511287,0000008F,false,Rx,0,8,FF,FF,00,7D,F2,FF,FF,FF,
2512895,0000021D,false,Rx,0,8,00,00,00,FF,FF,FF,FF,FF,
2512898,00000203,false,Rx,0,8,44,84,00,FF,FF,FF,00,C0,
2514113,000001C0,false,Rx,0,8,8D,31,00,40,63,55,55,57,
2514115,00000199,false,Rx,0,6,10,F1,D7,7E,00,20,00,00,
2514117,0000019A,false,Rx,0,6,58,F1,45,7F,00,10,00,00,
2516699,000002EB,false,Rx,0,8,35,F4,11,11,11,62,11,FF,
2516703,000001E4,false,Rx,0,8,0A,00,61,61,11,11,11,11,
2518006,000000D9,false,Rx,0,8,F8,FD,00,10,00,F0,7F,CF,
2518009,000000A5,false,Rx,0,8,74,0E,FF,F7,FF,00,00,C1,
2518013,000000A7,false,Rx,0,7,B9,FE,FF,F0,FF,FF,0F,00,
2519096,000000DC,false,Rx,0,6,21,0E,22,D0,07,EE,00,00,
2519101,0000032B,false,Rx,0,8,B5,00,AC,37,FF,FF,FF,FF,
2520228,000001A1,false,Rx,0,5,09,C8,00,00,81,00,00,00,
2523297,00000083,false,Rx,0,8,FF,7F,FF,7F,FF,7F,FF,7F,
2523299,00000254,false,Rx,0,8,FF,7F,FF,7F,FF,7F,FF,7F,
2523301,000001BB,false,Rx,0,8,FF,FF,00,FF,FF,FF,FF,FF,
2524446,0000019F,false,Rx,0,6,D6,F2,01,80,00,10,00,00,
2524449,000001DB,false,Rx,0,8,64,00,0A,6E,C0,FF,00,FF,
2525948,00000096,false,Rx,0,8,64,00,54,AA,01,FF,FF,FF,
2528013,000000FA,false,Rx,0,8,00,74,00,E0,7F,01,0A,C4,
2528016,000000D9,false,Rx,0,8,1F,FE,00,10,00,F0,7F,CF,
2528991,000002AE,false,Rx,0,8,FF,00,FF,64,FF,AF,64,00,
2528995,000001B3,false,Rx,0,8,C4,12,00,05,00,FF,FF,90,
2531999,00000197,false,Rx,0,4,BE,02,FE,FC,00,00,00,00,
2534424,00000199,false,Rx,0,6,C2,F3,E1,7E,00,20,00,00,
2534426,0000019A,false,Rx,0,6,37,F3,4F,7F,00,10,00,00,
2537260,00000510,false,Rx,0,8,40,10,00,02,03,92,01,00,
2537262,000000D9,false,Rx,0,8,1E,F0,00,10,00,F0,7F,CF,
2538321,000000A5,false,Rx,0,8,75,00,FF,F7,FF,00,00,C1,
2538323,00000095,false,Rx,0,8,64,68,96,00,00,F0,00,00,
2538325,000001CE,false,Rx,0,8,64,68,96,00,00,F0,00,00,
2538326,000000A7,false,Rx,0,7,3A,F0,FF,F0,FF,FF,0F,00,
2538329,000000DC,false,Rx,0,6,37,00,22,D0,07,EE,00,00,
2539445,000001CF,false,Rx,0,8,64,68,96,00,00,F0,00,00,
2539447,00000173,false,Rx,0,8,4D,F1,00,02,20,00,D2,1F,
2539449,00000302,false,Rx,0,7,68,F3,B6,6F,01,00,00,00,
2539451,000001A1,false,Rx,0,5,94,C9,00,00,81,00,00,00,
2543321,00000083,false,Rx,0,8,FF,7F,FF,7F,FF,7F,FF,7F,
2543323,00000254,false,Rx,0,8,FF,7F,FF,7F,FF,7F,FF,7F,
2544383,0000019F,false,Rx,0,6,CC,F4,FB,7F,00,10,00,00,
2545718,000002A5,false,Rx,0,2,FE,FE,00,00,00,00,00,00,
2546839,000002BB,false,Rx,0,5,A8,FE,3F,00,F2,00,00,00,
2547953,000000FA,false,Rx,0,8,02,C0,08,00,C8,07,D0,D7,
2547955,000000D9,false,Rx,0,8,43,F1,00,10,00,F0,7F,CF,
2548991,000002AE,false,Rx,0,8,FF,00,FF,64,FF,AF,64,00,
2548993,00000201,false,Rx,0,8,88,57,B9,66,00,FF,F0,FF,
2548995,000002C4,false,Rx,0,8,00,00,00,FF,FF,00,00,0F,
2548996,0000029D,false,Rx,0,8,FF,FF,FF,FF,0F,FF,FF,FF,
2551287,0000008F,false,Rx,0,8,FF,FF,00,7D,F2,FF,FF,FF,
2554116,000001C0,false,Rx,0,8,6A,32,00,40,63,55,55,57,
2554119,00000199,false,Rx,0,6,A3,F5,E1,7E,00,20,00,00,
2554121,0000019A,false,Rx,0,6,ED,F5,45,7F,00,10,00,00,
2555753,000000CA,false,Rx,0,8,88,2A,00,00,00,00,FD,F7,
2555758,00000096,false,Rx,0,8,64,00,54,AA,01,FF,FF,FF,
2558146,000000D9,false,Rx,0,8,A4,F2,00,10,00,F0,7F,CF,
2558149,000000A5,false,Rx,0,8,28,01,FF,F7,FF,00,00,C1,
2558152,000000A7,false,Rx,0,7,7C,F1,FF,F0,FF,FF,0F,00,
2558155,000000DC,false,Rx,0,6,5D,01,22,D0,07,EE,00,00,
2560286,000001A1,false,Rx,0,5,2E,CA,00,00,81,00,00,00,
2561937,00000197,false,Rx,0,4,31,03,FE,FC,00,00,00,00,
2561941,00000293,false,Rx,0,5,59,A0,FE,FF,14,00,00,00,
2563304,00000083,false,Rx,0,8,FF,7F,FF,7F,FF,7F,FF,7F,
2563306,00000254,false,Rx,0,8,FF,7F,FF,7F,FF,7F,FF,7F,
2564368,0000019F,false,Rx,0,6,2D,F6,05,80,00,10,00,00,
2564370,0000036F,false,Rx,0,5,BD,FA,FE,FF,14,00,00,00,
2564373,000001DB,false,Rx,0,8,64,00,0A,6E,C0,FF,00,FF,
2564375,000002E0,false,Rx,0,6,E9,FE,75,40,24,FF,00,00,
2565952,00000065,false,Rx,0,8,8E,8A,30,03,FF,FF,FF,FF,
2567968,000000FA,false,Rx,0,8,03,10,08,02,38,59,28,CA,
2567972,000000D9,false,Rx,0,8,F9,F3,00,10,00,F0,7F,CF,
2567975,000002AE,false,Rx,0,8,FF,00,FF,64,FF,AF,64,00,
2569197,00000284,false,Rx,0,8,C8,80,0C,FF,FF,FF,FF,0F,
2569201,000001AE,false,Rx,0,3,07,65,1A,00,00,00,00,00,
2569204,000001E4,false,Rx,0,8,57,01,61,61,11,11,11,11,
2570929,000002EB,false,Rx,0,8,68,F5,11,11,11,62,11,FF,
2570932,000000C0,false,Rx,0,2,FE,40,00,00,00,00,00,00,
2573797,0000028E,false,Rx,0,5,87,D0,FE,FF,14,00,00,00,
2573803,00000376,false,Rx,0,3,44,1C,11,00,00,00,00,00,
2573805,00000199,false,Rx,0,6,77,F7,E1,7E,00,20,00,00,
2573808,0000019A,false,Rx,0,6,39,F7,45,7F,00,10,00,00,
2577825,00000294,false,Rx,0,5,1B,C8,FE,FF,14,00,00,00,
2577831,000000D9,false,Rx,0,8,77,F4,00,10,00,F0,7F,CF,
2577834,000000A5,false,Rx,0,8,CF,02,FF,F7,FF,00,00,C1,
2577836,000000A7,false,Rx,0,7,B6,F2,FF,F0,FF,FF,0F,00,
2578964,000000DC,false,Rx,0,6,E3,02,22,D0,07,EE,00,00,
2578967,00000163,false,Rx,0,8,EF,F7,04,25,12,15,02,F5,
2578970,00000302,false,Rx,0,7,6D,F7,B6,6F,01,00,00,00,
2580241,000001A1,false,Rx,0,5,B3,CB,00,00,81,00,00,00,
2583320,00000083,false,Rx,0,8,FF,7F,FF,7F,FF,7F,FF,7F,
2583323,00000254,false,Rx,0,8,FF,7F,FF,7F,FF,7F,FF,7F,
2583324,00000373,false,Rx,0,6,00,B0,09,FF,FF,FF,00,00,
2584374,0000024A,false,Rx,0,8,02,01,00,00,00,00,F4,FF,
2584377,0000019F,false,Rx,0,6,67,F8,FD,7F,00,10,00,00,
2584378,00000301,false,Rx,0,7,C7,C8,04,72,FF,FF,2F,00,
2585800,0000012F,false,Rx,0,8,D4,75,FA,DD,FF,FF,FF,00,
2585802,00000096,false,Rx,0,8,64,00,54,AA,01,FF,FF,FF,
2587963,000000FA,false,Rx,0,8,05,86,12,08,76,76,76,00,
2587966,000000D9,false,Rx,0,8,2A,F5,00,10,00,F0,7F,CF,
2589050,000002AE,false,Rx,0,8,FF,00,FF,64,FF,AF,64,00,
2589053,000003E9,false,Rx,0,8,FF,FF,0F,FF,FF,FF,FF,FF,
2589055,00000173,false,Rx,0,8,C3,F6,00,02,20,00,D2,1F,
2590071,000002A7,false,Rx,0,5,E6,F6,FE,FF,14,00,00,00,
2591248,0000008F,false,Rx,0,8,FF,FF,00,7D,F2,FF,FF,FF,
2591252,00000197,false,Rx,0,4,BB,04,FE,FC,00,00,00,00,
2594120,000001C0,false,Rx,0,8,37,33,00,40,63,55,55,57,
2594124,00000199,false,Rx,0,6,61,F9,E1,7E,00,20,00,00,
2594127,0000019A,false,Rx,0,6,47,F9,4A,7F,00,10,00,00,
2595642,00000314,false,Rx,0,5,50,80,1D,FF,FF,00,00,00,
2597643,0000037F,false,Rx,0,2,FF,F0,00,00,00,00,00,00,
2597646,00000297,false,Rx,0,7,F0,F1,F0,E0,F0,F0,A8,00,
2597649,000000D9,false,Rx,0,8,CD,F6,00,10,00,F0,7F,CF,
2597651,000000A5,false,Rx,0,8,92,03,FF,F7,FF,00,00,C1,
2597654,00000095,false,Rx,0,8,64,68,96,00,00,F0,00,00,
2598822,000001CE,false,Rx,0,8,64,68,96,00,00,F0,00,00,
2598825,000000A7,false,Rx,0,7,F0,F3,FF,F0,FF,FF,0F,00,
2598827,000000DC,false,Rx,0,6,89,03,22,D0,07,EE,00,00,
2598830,000001CF,false,Rx,0,8,64,68,96,00,00,F0,00,00,
2598832,00000201,false,Rx,0,8,9C,57,CE,66,00,FF,F0,FF,
2599980,000002AA,false,Rx,0,8,00,FF,FF,FF,FF,FF,FF,FF,
2599984,000003FD,false,Rx,0,5,59,08,20,FF,FF,00,00,00,
2599987,000001A1,false,Rx,0,5,47,CC,00,00,81,00,00,00,
2599990,000003B4,false,Rx,0,8,FF,FF,FC,FF,F8,F8,00,FF,
2600988,0000034B,false,Rx,0,8,F3,FF,FF,FF,FF,FF,FF,FF,
2603275,00000083,false,Rx,0,8,FF,7F,FF,7F,FF,7F,FF,7F,
2603278,00000254,false,Rx,0,8,FF,7F,FF,7F,FF,7F,FF,7F,
2604338,0000019F,false,Rx,0,6,C8,FA,07,80,00,10,00,00,
2604342,000001DB,false,Rx,0,8,64,00,0A,6E,C0,FF,00,FF,
2605784,0000003C,false,Rx,0,8,97,A0,03,92,01,00,2A,FF,
2607934,000000FA,false,Rx,0,8,05,FD,FD,FD,FD,FD,FD,E9,
2607937,000000D9,false,Rx,0,8,90,F7,00,10,00,F0,7F,CF,
2608983,000002AE,false,Rx,0,8,FF,00,FF,64,FF,AF,64,00,
2608987,000001C8,false,Rx,0,8,00,00,00,00,F0,31,FF,FF,
2608989,00000265,false,Rx,0,8,F7,66,88,13,70,30,FF,FF,
2608992,00000340,false,Rx,0,2,F3,FF,00,00,00,00,00,00,
2608994,0000042B,false,Rx,0,4,95,1F,72,30,00,00,00,00,
2614375,00000199,false,Rx,0,6,0E,FB,EB,7E,00,20,00,00,
2614378,0000019A,false,Rx,0,6,BA,FB,36,7F,00,10,00,00,
2615770,00000096,false,Rx,0,8,64,00,54,AA,01,FF,FF,FF,
2615773,000002EB,false,Rx,0,8,8F,F6,11,11,11,62,11,FF,
2615777,000001E4,false,Rx,0,8,B0,02,61,61,11,11,11,11,
2618081,000000D9,false,Rx,0,8,CC,F8,00,10,00,F0,7F,CF,
2618085,000000A5,false,Rx,0,8,1C,04,FF,F7,FF,00,00,C1,
2618087,000000A7,false,Rx,0,7,3F,F4,FF,F0,FF,FF,0F,00,
2618090,000000DC,false,Rx,0,6,82,04,22,D0,07,EE,00,00,
2619357,00000302,false,Rx,0,7,62,FB,B6,6F,01,00,00,00,
2619360,0000032B,false,Rx,0,8,B5,00,AD,37,FF,FF,FF,FF,
2619362,000001A1,false,Rx,0,5,DA,CD,00,00,81,00,00,00,
2621936,00000197,false,Rx,0,4,34,05,FE,FC,00,00,00,00,
2623250,00000083,false,Rx,0,8,FF,7F,FF,7F,FF,7F,FF,7F,
2623252,00000254,false,Rx,0,8,FF,7F,FF,7F,FF,7F,FF,7F,
2624328,0000019F,false,Rx,0,6,68,FC,FE,7F,00,10,00,00,
2627939,000000FA,false,Rx,0,8,00,84,00,E0,7F,01,0A,C4,
2627942,000000D9,false,Rx,0,8,91,F9,00,10,00,F0,7F,CF,
2629059,000001B3,false,Rx,0,8,C4,12,00,06,00,FF,FF,91,
2629062,000002AE,false,Rx,0,8,FF,00,FF,64,FF,AF,64,00,
2629064,0000040F,false,Rx,0,4,28,2B,0C,F1,00,00,00,00,
2630643,00000350,false,Rx,0,8,FF,FF,FF,63,FF,FF,FF,FF,
2630646,0000008F,false,Rx,0,8,FF,FF,00,7D,F2,FF,FF,FF,
2634082,000001C0,false,Rx,0,8,B9,34,00,40,63,55,55,57,
2634086,00000371,false,Rx,0,5,50,41,32,50,FD,00,00,00,
2634088,00000199,false,Rx,0,6,D4,FD,E1,7E,00,20,00,00,
2634091,0000019A,false,Rx,0,6,49,FD,40,7F,00,10,00,00,
2635744,000000CA,false,Rx,0,8,D5,2B,00,00,00,00,FD,F7,
2635747,00000349,false,Rx,0,5,FE,FF,FE,FF,FF,00,00,00,
2637231,00000510,false,Rx,0,8,40,10,00,02,03,92,01,00,
2637234,000000D9,false,Rx,0,8,76,FA,00,10,00,F0,7F,CF,
2638245,000000A5,false,Rx,0,8,41,05,FF,F7,FF,00,00,C1,
2638248,000000A7,false,Rx,0,7,79,F5,FF,F0,FF,FF,0F,00,
2638251,000000DC,false,Rx,0,6,E8,05,22,D0,07,EE,00,00,
2639395,00000173,false,Rx,0,8,25,FB,00,02,20,00,D2,1F,
2639399,000001A1,false,Rx,0,5,60,CE,00,00,81,00,00,00,
2642861,00000296,false,Rx,0,5,BF,E1,FE,FF,14,00,00,00,
2642864,00000083,false,Rx,0,8,FF,7F,FF,7F,FF,7F,FF,7F,
2642867,00000254,false,Rx,0,8,FF,7F,FF,7F,FF,7F,FF,7F,
2644357,0000019F,false,Rx,0,6,9B,FE,FC,7F,00,10,00,00,
2644361,0000036E,false,Rx,0,5,72,FA,FE,FF,14,00,00,00,
2644363,000001DB,false,Rx,0,8,64,00,0A,6E,C0,FF,00,FF,
2645812,000001E1,false,Rx,0,6,00,F5,00,FF,FF,FF,00,00,
2645815,00000096,false,Rx,0,8,64,00,54,AA,01,FF,FF,FF,
2646828,000002BB,false,Rx,0,5,5D,F0,3F,00,F2,00,00,00,
2647935,000000FA,false,Rx,0,8,02,C0,08,00,C8,07,D0,D7,
2647938,000000D9,false,Rx,0,8,2B,FB,00,10,00,F0,7F,CF,
2648981,000002AE,false,Rx,0,8,FF,00,FF,64,FF,AF,64,00,
2648984,00000201,false,Rx,0,8,B1,57,E3,66,00,FF,F0,FF,
2648987,000002C4,false,Rx,0,8,00,00,00,FF,FF,00,00,0F,
2648989,00000308,false,Rx,0,8,FF,F1,FF,FF,FF,FF,FF,FF,
2648991,0000029D,false,Rx,0,8,FF,FF,FF,FF,0F,FF,FF,FF,
2651920,00000197,false,Rx,0,4,B8,06,FE,FC,00,00,00,00,
2654375,00000199,false,Rx,0,6,7C,F0,E1,7E,00,20,00,00,
2654379,0000019A,false,Rx,0,6,5A,F0,4A,7F,00,10,00,00,
2658021,000000D9,false,Rx,0,8,A5,FC,00,10,00,F0,7F,CF,
2658025,000000A5,false,Rx,0,8,A6,06,FF,F7,FF,00,00,C1,
2658027,00000095,false,Rx,0,8,64,68,96,00,00,F0,00,00,
2658030,000001CE,false,Rx,0,8,64,68,96,00,00,F0,00,00,
2658032,000000A7,false,Rx,0,7,B3,F6,FF,F0,FF,FF,0F,00,
2659164,000000DC,false,Rx,0,6,56,06,22,D0,07,EE,00,00,
2659167,000001CF,false,Rx,0,8,64,68,96,00,00,F0,00,00,
2659170,00000302,false,Rx,0,7,A2,F0,B6,6F,01,00,00,00,
2659172,000003A1,false,Rx,0,8,00,01,00,03,00,C0,00,F0,
2660269,000001A1,false,Rx,0,5,95,C0,00,00,81,00,00,00,
2663275,00000083,false,Rx,0,8,FF,7F,FF,7F,FF,7F,FF,7F,
2663279,00000254,false,Rx,0,8,FF,7F,FF,7F,FF,7F,FF,7F,
2664330,0000019F,false,Rx,0,6,C0,F1,FE,7F,00,10,00,00,
2664334,000002E0,false,Rx,0,6,FF,F0,75,40,24,FF,00,00,
2665817,00000065,false,Rx,0,8,D3,8B,30,03,FF,FF,FF,FF,
2667772,0000030C,false,Rx,0,5,47,F1,FE,FF,14,00,00,00,
2667775,000001AE,false,Rx,0,3,07,65,1A,00,00,00,00,00,
2667778,000000D9,false,Rx,0,8,F8,FD,00,10,00,F0,7F,CF,
2667780,000000FA,false,Rx,0,8,03,10,08,02,38,59,28,CA,
2667782,000001E4,false,Rx,0,8,ED,03,61,61,11,11,11,11,
2668784,00000145,false,Rx,0,3,C8,9F,F0,00,00,00,00,00,
2668788,000002AE,false,Rx,0,8,FF,00,FF,64,FF,AF,64,00,
2668790,00000284,false,Rx,0,8,C8,80,0C,FF,FF,FF,FF,0F,
2668793,000002EB,false,Rx,0,8,D2,F7,11,11,11,62,11,FF,
2668795,00000032,false,Rx,0,8,53,FB,00,00,01,FC,FF,FF,
2670103,00000328,false,Rx,0,6,7B,6C,D9,05,68,25,00,00,
2670106,000002A7,false,Rx,0,5,7B,F7,FE,FF,14,00,00,00,
2671161,0000026C,false,Rx,0,8,24,8B,F1,FF,FF,FF,FF,FF,
2671165,0000008F,false,Rx,0,8,FF,FF,00,7D,F2,FF,FF,FF,
2671167,00000102,false,Rx,0,8,11,93,F0,FF,FF,FF,FF,FF,
2671169,00000105,false,Rx,0,8,ED,A3,00,F0,FF,FF,FF,FF,
2674072,000001C0,false,Rx,0,8,E4,35,00,40,63,55,55,57,
2674075,00000376,false,Rx,0,3,08,1D,11,00,00,00,00,00,
2674078,00000199,false,Rx,0,6,A8,F2,E1,7E,00,20,00,00,
2674080,0000019A,false,Rx,0,6,E6,F2,45,7F,00,10,00,00,
2675812,00000096,false,Rx,0,8,64,00,54,AA,01,FF,FF,FF,
2678141,000000D9,false,Rx,0,8,1F,FE,00,10,00,F0,7F,CF,
2678144,000000A5,false,Rx,0,8,FB,07,FF,F7,FF,00,00,C1,
2678147,000000A7,false,Rx,0,7,F5,F7,FF,F0,FF,FF,0F,00,
2678149,000000DC,false,Rx,0,6,3C,07,22,D0,07,EE,00,00,
2679363,00000163,false,Rx,0,8,6E,F2,04,25,12,15,04,F5,
2679366,00000378,false,Rx,0,8,15,F4,61,21,FF,10,FF,6F,
2679370,000001A1,false,Rx,0,5,08,C1,00,00,81,00,00,00,
2681924,00000197,false,Rx,0,4,37,07,FE,FC,00,00,00,00,
2683269,00000083,false,Rx,0,8,FF,7F,FF,7F,FF,7F,FF,7F,
2683272,00000254,false,Rx,0,8,FF,7F,FF,7F,FF,7F,FF,7F,
2683274,000003CA,false,Rx,0,8,F4,60,60,FF,0A,36,FF,FF,
2684369,0000019F,false,Rx,0,6,F3,F3,0C,80,00,10,00,00,
2684372,000001DB,false,Rx,0,8,64,00,0A,6E,C0,FF,00,FF,
2685359,0000012F,false,Rx,0,8,33,76,FA,DD,FF,FF,FF,00,
2687943,000000FA,false,Rx,0,8,05,86,12,08,76,76,76,00,
2687946,000000D9,false,Rx,0,8,1E,F0,00,10,00,F0,7F,CF,
2688978,000002AE,false,Rx,0,8,FF,00,FF,64,FF,AF,64,00,
2688980,00000173,false,Rx,0,8,4D,F1,00,02,20,00,D2,1F,
2691921,000000AB,false,Rx,0,8,23,F6,04,00,00,D0,FF,FF,
2691923,00000276,false,Rx,0,8,C0,00,00,00,00,C0,FF,FF,
2694364,00000199,false,Rx,0,6,C9,F4,E1,7E,00,20,00,00,
2694366,0000019A,false,Rx,0,6,EF,F4,4A,7F,00,10,00,00,
2695675,000002A6,false,Rx,0,2,00,B9,00,00,00,00,00,00,
2697963,000000D9,false,Rx,0,8,43,F1,00,10,00,F0,7F,CF,
2697965,000000A5,false,Rx,0,8,A7,08,FF,F7,FF,00,00,C1,
2697966,000000A7,false,Rx,0,7,30,F8,FF,F0,FF,FF,0F,00,
2699027,000000DC,false,Rx,0,6,40,08,22,D0,07,EE,00,00,
2699028,000003FD,false,Rx,0,5,C4,09,20,FF,FF,00,00,00,
2699029,00000201,false,Rx,0,8,C7,57,F8,66,00,FF,F0,FF,
2699030,00000302,false,Rx,0,7,A7,F4,B6,6F,01,00,00,00,
2700216,000001A1,false,Rx,0,5,B2,C2,00,00,81,00,00,00,
2703235,00000083,false,Rx,0,8,FF,7F,FF,7F,FF,7F,FF,7F,
2703236,00000254,false,Rx,0,8,FF,7F,FF,7F,FF,7F,FF,7F,
2703237,000003AE,false,Rx,0,8,AD,2E,0B,00,10,00,00,10,
2704321,0000019F,false,Rx,0,6,52,F5,FC,7F,00,10,00,00,
2705823,0000003C,false,Rx,0,8,CA,A1,03,92,01,00,2A,FF,
2705823,00000096,false,Rx,0,8,64,00,54,AA,01,FF,FF,FF,
2707892,0000031C,false,Rx,0,8,FF,3F,FF,FF,09,00,40,FD,
2707894,000000FA,false,Rx,0,8,05,FD,FD,FD,FD,FD,FD,E9,
2707894,000000D9,false,Rx,0,8,A4,F2,00,10,00,F0,7F,CF,
2709028,000002AE,false,Rx,0,8,FF,00,FF,64,FF,AF,64,00,
2709028,00000265,false,Rx,0,8,F7,66,88,13,70,30,FF,FF,
2710579,000001DD,false,Rx,0,8,00,00,00,F0,FF,FF,FF,FF,
2710580,000001C3,false,Rx,0,8,AD,45,00,00,00,00,00,00,
2710580,0000026B,false,Rx,0,8,58,16,FD,FF,FF,FF,FF,FF,
2711586,0000008F,false,Rx,0,8,FF,FF,00,7D,F2,FF,FF,FF,
2711586,000003C0,false,Rx,0,8,01,44,D4,FD,FF,FF,FF,FF,
2711587,00000197,false,Rx,0,4,B1,08,FE,FC,00,00,00,00,
2712887,0000021D,false,Rx,0,8,00,00,00,FF,FF,FF,FF,FF,
2712888,00000203,false,Rx,0,8,19,85,00,FF,FF,FF,00,C0,
2714084,000001C0,false,Rx,0,8,03,36,00,40,63,55,55,57,
2714085,00000199,false,Rx,0,6,1D,F6,E1,7E,00,20,00,00,
2714085,0000019A,false,Rx,0,6,80,F6,40,7F,00,10,00,00,
2715699,000000CA,false,Rx,0,8,5B,2C,00,00,00,00,FD,F7,
2717464,000001E4,false,Rx,0,8,63,04,61,61,11,11,11,11,
2717465,000002EB,false,Rx,0,8,8E,F8,11,11,11,62,11,FF,
2717467,000000D9,false,Rx,0,8,F9,F3,00,10,00,F0,7F,CF,
2717468,000000A5,false,Rx,0,8,FA,09,FF,F7,FF,00,00,C1,
2718677,00000095,false,Rx,0,8,64,68,96,00,00,F0,00,00,
2718678,000000A7,false,Rx,0,7,76,F9,FF,F0,FF,FF,0F,00,
2718679,000000DC,false,Rx,0,6,2A,09,22,D0,07,EE,00,00,
2718680,000001CE,false,Rx,0,8,64,68,96,00,00,F0,00,00,
2718680,000001CF,false,Rx,0,8,64,68,96,00,00,F0,00,00,
2719792,0000032B,false,Rx,0,8,B5,00,AE,37,FF,FF,FF,FF,
2719793,000001A1,false,Rx,0,5,2F,C3,00,00,81,00,00,00,
2723253,00000083,false,Rx,0,8,FF,7F,FF,7F,FF,7F,FF,7F,
2723254,00000254,false,Rx,0,8,FF,7F,FF,7F,FF,7F,FF,7F,
2723255,000002CA,false,Rx,0,2,70,74,00,00,00,00,00,00,
2723256,000001BB,false,Rx,0,8,FF,FF,00,FF,FF,FF,FF,FF,
2724323,0000019F,false,Rx,0,6,A1,F7,FE,7F,00,10,00,00,
2724324,0000036F,false,Rx,0,5,20,FB,FE,FF,14,00,00,00,
2724325,000001DB,false,Rx,0,8,64,00,0A,6E,C0,FF,00,FF,
2727910,000000FA,false,Rx,0,8,00,94,00,E0,7F,01,0A,C4,
2727911,000000D9,false,Rx,0,8,77,F4,00,10,00,F0,7F,CF,
2727912,0000043D,false,Rx,0,8,0A,D4,CF,68,51,1B,80,61,
2728919,000002AE,false,Rx,0,8,FF,00,FF,64,FF,AF,64,00,
2728920,000001B3,false,Rx,0,8,C4,12,00,07,00,FF,FF,92,
2728921,000004A5,false,Rx,0,8,FF,00,00,00,00,00,F0,FF,
2734338,00000199,false,Rx,0,6,0B,F8,E1,7E,00,20,00,00,
2734339,0000019A,false,Rx,0,6,F0,F8,31,7F,00,10,00,00,
2735776,00000096,false,Rx,0,8,64,00,54,AA,01,FF,FF,FF,
2737208,00000510,false,Rx,0,8,40,10,00,02,03,92,01,00,
2737209,00000064,false,Rx,0,8,56,FE,F2,FF,FF,FF,FF,FF,
2737210,000000D9,false,Rx,0,8,2A,F5,00,10,00,F0,7F,CF,
2738336,000000A5,false,Rx,0,8,1D,0A,FF,F7,FF,00,00,C1,
2738337,000000A7,false,Rx,0,7,BC,FA,FF,F0,FF,FF,0F,00,
2738337,000000DC,false,Rx,0,6,94,0A,22,D0,07,EE,00,00,
2739398,00000173,false,Rx,0,8,C3,F6,00,02,20,00,D2,1F,
2739399,00000302,false,Rx,0,7,A8,F8,B6,6F,01,00,00,00,
2739399,000001A1,false,Rx,0,5,DB,C4,00,00,81,00,00,00,
2741899,00000197,false,Rx,0,4,3E,09,FE,FC,00,00,00,00,
2743260,00000083,false,Rx,0,8,FF,7F,FF,7F,FF,7F,FF,7F,
2743261,00000254,false,Rx,0,8,FF,7F,FF,7F,FF,7F,FF,7F,
2744353,0000019F,false,Rx,0,6,A5,F9,02,80,00,10,00,00,
2744355,0000006E,false,Rx,0,8,00,D8,08,DB,08,00,00,FF,
2745512,0000006F,false,Rx,0,8,08,D8,08,60,20,5B,2E,FC,
2745513,000002A5,false,Rx,0,2,FE,FE,00,00,00,00,00,00,
2745514,000007C1,false,Rx,0,8,0A,10,00,0C,FF,04,01,00,
2746798,000002BB,false,Rx,0,5,C0,F1,3F,00,F2,00,00,00,
2747912,000000FA,false,Rx,0,8,02,C0,08,00,C8,07,D0,D7,
2747913,000000D9,false,Rx,0,8,CD,F6,00,10,00,F0,7F,CF,
2747914,000002AE,false,Rx,0,8,FF,00,FF,64,FF,AF,64,00,
2749002,00000201,false,Rx,0,8,DC,57,0E,67,00,FF,F0,FF,
2749002,000002C4,false,Rx,0,8,00,00,00,FF,FF,00,00,0F,
2749003,0000029D,false,Rx,0,8,FF,FF,FF,FF,0F,FF,FF,FF,
2750152,000002A7,false,Rx,0,5,13,F8,FE,FF,14,00,00,00,
2751209,0000008F,false,Rx,0,8,FF,FF,00,7D,F2,FF,FF,FF,
2754023,000001C0,false,Rx,0,8,5E,37,00,40,63,55,55,57,
2754024,00000199,false,Rx,0,6,DF,FA,E1,7E,00,20,00,00,
2754024,0000019A,false,Rx,0,6,F9,FA,4A,7F,00,10,00,00,
2755667,00000314,false,Rx,0,5,50,80,1D,FF,FF,00,00,00,
2757956,000000D9,false,Rx,0,8,90,F7,00,10,00,F0,7F,CF,
2757957,000000A5,false,Rx,0,8,40,0B,FF,F7,FF,00,00,C1,
2757958,000000A7,false,Rx,0,7,FA,FB,FF,F0,FF,FF,0F,00,
2758999,000000DC,false,Rx,0,6,FE,0B,22,D0,07,EE,00,00,
2760148,000001A1,false,Rx,0,5,46,C5,00,00,81,00,00,00,
2763295,00000083,false,Rx,0,8,FF,7F,FF,7F,FF,7F,FF,7F,
2763296,00000254,false,Rx,0,8,FF,7F,FF,7F,FF,7F,FF,7F,
2764350,0000019F,false,Rx,0,6,44,FB,FC,7F,00,10,00,00,
2764351,000001DB,false,Rx,0,8,64,00,0A,6E,C0,FF,00,FF,
2764351,000002E0,false,Rx,0,6,95,F1,75,40,24,FF,00,00,
2766211,00000065,false,Rx,0,8,5D,8C,30,03,FF,FF,FF,FF,
2766211,00000096,false,Rx,0,8,64,00,54,AA,01,FF,FF,FF,
2768141,000000D9,false,Rx,0,8,CC,F8,00,10,00,F0,7F,CF,
2768144,000002AE,false,Rx,0,8,FF,00,FF,64,FF,AF,64,00,
2768145,0000019D,false,Rx,0,8,0A,3E,92,02,FF,FF,FF,FF,
2768147,000001AE,false,Rx,0,3,07,65,1A,00,00,00,00,00,
2769306,00000284,false,Rx,0,8,C8,80,0C,FF,FF,FF,FF,0F,
2769325,000001E4,false,Rx,0,8,3E,05,61,61,11,11,11,11,
2769326,0000034A,false,Rx,0,8,E6,B3,70,FB,59,CE,89,26,
2769326,000002EB,false,Rx,0,8,D3,F9,11,11,11,62,11,FF,
2769327,000003D2,false,Rx,0,2,F3,FF,00,00,00,00,00,00,
2769327,00000426,false,Rx,0,4,FF,FF,FF,F0,00,00,00,00,
2770595,00000438,false,Rx,0,4,FF,FF,FF,F0,00,00,00,00,
2771956,00000197,false,Rx,0,4,B2,0A,FE,FC,00,00,00,00,
2771956,000000B4,false,Rx,0,4,EE,4F,3B,1F,00,00,00,00,
2771957,000000B6,false,Rx,0,8,E3,37,00,FF,FF,FF,FF,FF,
2771957,000000B7,false,Rx,0,8,3F,00,00,00,FF,FF,FF,FF,
2771957,000000C0,false,Rx,0,2,F0,40,00,00,00,00,00,00,
2774081,00000376,false,Rx,0,3,DC,1E,11,00,00,00,00,00,
2774082,00000199,false,Rx,0,6,BE,FC,E1,7E,00,20,00,00,
2774082,0000019A,false,Rx,0,6,23,FC,40,7F,00,10,00,00,
2775504,000001D6,false,Rx,0,3,C0,C0,FF,00,00,00,00,00,
2775505,000002F4,false,Rx,0,2,00,00,00,00,00,00,00,00,
2777912,00000138,false,Rx,0,8,FF,FF,FF,FF,FF,FF,FF,FF,
2777913,000000D9,false,Rx,0,8,91,F9,00,10,00,F0,7F,CF,
2777913,000000A5,false,Rx,0,8,CE,0C,FF,F7,FF,00,00,C1,
2778998,000000A7,false,Rx,0,7,35,FC,FF,F0,FF,FF,0F,00,
2778999,000000DC,false,Rx,0,6,F5,0C,22,D0,07,EE,00,00,
2778999,00000163,false,Rx,0,8,6F,FC,04,25,12,15,04,F5,
2778999,00000302,false,Rx,0,7,AD,FC,B6,6F,01,00,00,00,
2780616,000001A1,false,Rx,0,5,FC,C6,00,00,81,00,00,00,
2782552,000000FA,false,Rx,0,8,03,10,08,02,38,59,28,CA,
2782552,00000083,false,Rx,0,8,FF,7F,FF,7F,FF,7F,FF,7F,
2783659,00000254,false,Rx,0,8,FF,7F,FF,7F,FF,7F,FF,7F,
2783659,00000095,false,Rx,0,8,64,68,96,00,00,F0,00,00,
2783660,000001CE,false,Rx,0,8,64,68,96,00,00,F0,00,00,
2783660,0000019F,false,Rx,0,6,02,FD,FE,7F,00,10,00,00,
2784819,000001CF,false,Rx,0,8,64,68,96,00,00,F0,00,00,
2784820,00000301,false,Rx,0,7,84,CD,04,72,FF,FF,2F,00,
2785888,0000012F,false,Rx,0,8,6E,77,FA,DD,FF,FF,FF,00,
2788095,000003F9,false,Rx,0,8,BE,F2,00,73,3E,30,33,00,
2788096,000000D9,false,Rx,0,8,76,FA,00,10,00,F0,7F,CF,
2788096,0000034C,false,Rx,0,8,76,00,00,00,AC,03,F0,FF,
2788096,000002AE,false,Rx,0,8,FF,00,FF,64,FF,AF,64,00,
2789371,000003E9,false,Rx,0,8,FF,FF,0F,FF,FF,FF,FF,FF,
2789371,00000173,false,Rx,0,8,25,FB,00,02,20,00,D2,1F,
2789372,000000FA,false,Rx,0,8,05,86,12,08,76,76,76,00,
2789372,00000287,false,Rx,0,8,C1,0C,FE,F0,3D,FF,30,FD,
2790457,0000008F,false,Rx,0,8,FF,FF,00,7D,F2,FF,FF,FF,
2793623,00000200,false,Rx,0,8,00,00,84,FF,FF,00,FF,C0,
2793623,000001C0,false,Rx,0,8,02,38,00,40,63,55,55,57,
2794621,00000199,false,Rx,0,6,6A,FE,E1,7E,00,20,00,00,
2794622,0000019A,false,Rx,0,6,91,FE,31,7F,00,10,00,00,
2794622,000000C8,false,Rx,0,8,70,FF,FF,FF,FF,FF,FF,FF,
2795685,000000CA,false,Rx,0,8,06,2D,00,00,00,00,FD,F7,
2795685,00000096,false,Rx,0,8,64,00,54,AA,01,FF,FF,FF,
2797658,0000037F,false,Rx,0,2,FF,F0,00,00,00,00,00,00,
2797659,00000297,false,Rx,0,7,3A,F2,F0,E0,F0,F0,A8,00,
2797659,000000D9,false,Rx,0,8,2B,FB,00,10,00,F0,7F,CF,
2797659,000000A5,false,Rx,0,8,93,0D,FF,F7,FF,00,00,C1,
2799262,000000A7,false,Rx,0,7,73,FD,FF,F0,FF,FF,0F,00,
2799263,000000DC,false,Rx,0,6,9F,0D,22,D0,07,EE,00,00,
2799263,000003FD,false,Rx,0,5,7E,0A,20,FF,FF,00,00,00,
2799263,00000201,false,Rx,0,8,F2,57,23,67,00,FF,F0,FF,
2799263,000003B4,false,Rx,0,8,FF,FF,FC,FF,F8,F8,00,FF,
2800818,000001A1,false,Rx,0,5,61,C7,00,00,81,00,00,00,
2802006,00000197,false,Rx,0,4,3D,0B,FE,FC,00,00,00,00,
2803296,00000083,false,Rx,0,8,FF,7F,FF,7F,FF,7F,FF,7F,
2803297,00000254,false,Rx,0,8,FF,7F,FF,7F,FF,7F,FF,7F,
2803297,000004AB,false,Rx,0,6,84,03,FD,FF,F2,F2,00,00,
2804404,0000019F,false,Rx,0,6,36,F0,F6,7F,00,10,00,00,
2804405,0000036E,false,Rx,0,5,EF,FB,FE,FF,14,00,00,00,
2804405,000001DB,false,Rx,0,8,64,00,0A,6E,C0,FF,00,FF,
2806593,0000003C,false,Rx,0,8,2D,A2,03,92,01,00,2A,FF,
2808593,000000FA,false,Rx,0,8,05,FD,FD,FD,FD,FD,FD,E9,
2808593,000000D9,false,Rx,0,8,A5,FC,00,10,00,F0,7F,CF,
2808594,000002AE,false,Rx,0,8,FF,00,FF,64,FF,AF,64,00,
2809186,000001C8,false,Rx,0,8,00,00,00,00,F0,31,FF,FF,
2809187,00000265,false,Rx,0,8,F7,66,88,13,70,30,FF,FF,
2809187,00000340,false,Rx,0,2,F3,FF,00,00,00,00,00,00,
2809187,0000042B,false,Rx,0,4,95,1F,72,30,00,00,00,00,
2814495,00000199,false,Rx,0,6,16,F1,E1,7E,00,20,00,00,
2814496,0000019A,false,Rx,0,6,8B,F1,40,7F,00,10,00,00,
2816796,000002EB,false,Rx,0,8,34,FA,11,11,11,62,11,FF,
2816797,000001E4,false,Rx,0,8,D9,06,61,61,11,11,11,11,
2818025,000000D9,false,Rx,0,8,F8,FD,00,10,00,F0,7F,CF,
2818026,000000A5,false,Rx,0,8,74,0E,FF,F7,FF,00,00,C1,
2818026,000000A7,false,Rx,0,7,B9,FE,FF,F0,FF,FF,0F,00,
2819149,000000DC,false,Rx,0,6,21,0E,22,D0,07,EE,00,00,
2819149,000002D8,false,Rx,0,8,FD,FF,FF,FF,22,22,12,80,
2819150,000001BC,false,Rx,0,6,FF,FF,F0,FF,FF,FF,00,00,
2819150,00000302,false,Rx,0,7,E4,F1,B6,6F,01,00,00,00,
2819150,0000031B,false,Rx,0,6,FF,FF,F0,FF,FF,FF,00,00,
2820327,0000032B,false,Rx,0,8,B5,00,AF,37,FF,FF,FF,FF,
2820328,000001A1,false,Rx,0,5,09,C8,00,00,81,00,00,00,
2820328,00000384,false,Rx,0,8,FF,FF,F7,FF,FF,FF,FF,FF,
2823597,00000083,false,Rx,0,8,FF,7F,FF,7F,FF,7F,FF,7F,
2823598,00000254,false,Rx,0,8,FF,7F,FF,7F,FF,7F,FF,7F,
2824592,0000019F,false,Rx,0,6,6C,F2,02,80,00,10,00,00,
2826008,00000096,false,Rx,0,8,64,00,54,AA,01,FF,FF,FF,
2828323,0000030C,false,Rx,0,5,FD,F2,FE,FF,14,00,00,00,
2828324,000000D9,false,Rx,0,8,1F,FE,00,10,00,F0,7F,CF,
2828324,000000FA,false,Rx,0,8,00,A4,00,E0,7F,01,0A,C4,
2829482,000002AE,false,Rx,0,8,FF,00,FF,64,FF,AF,64,00,
2829483,000001B3,false,Rx,0,8,C4,12,00,08,00,FF,FF,93,
2830609,000002A7,false,Rx,0,5,8E,F9,FE,FF,14,00,00,00,
2830610,0000008F,false,Rx,0,8,FF,FF,00,7D,F2,FF,FF,FF,
2832025,00000197,false,Rx,0,4,B7,0C,FE,FC,00,00,00,00,
2834098,000001C0,false,Rx,0,8,5F,39,00,40,63,55,55,57,
2834099,00000199,false,Rx,0,6,C2,F3,E1,7E,00,20,00,00,
2834099,0000019A,false,Rx,0,6,8C,F3,45,7F,00,10,00,00,
2835730,00000349,false,Rx,0,5,FE,FF,FE,FF,FF,00,00,00,
2837480,00000510,false,Rx,0,8,40,10,00,02,03,92,01,00,
2837481,000000D9,false,Rx,0,8,1E,F0,00,10,00,F0,7F,CF,
2838820,000000A5,false,Rx,0,8,75,00,FF,F7,FF,00,00,C1,
2838821,00000095,false,Rx,0,8,64,68,96,00,00,F0,00,00,
2838822,000001CE,false,Rx,0,8,64,68,96,00,00,F0,00,00,
2838822,000000A7,false,Rx,0,7,3A,F0,FF,F0,FF,FF,0F,00,
2838823,000000DC,false,Rx,0,6,37,00,22,D0,07,EE,00,00,
2839602,000001CF,false,Rx,0,8,64,68,96,00,00,F0,00,00,
2839604,00000173,false,Rx,0,8,4D,F1,00,02,20,00,D2,1F,
2839605,00000347,false,Rx,0,8,38,4A,F8,2A,FC,FF,F8,FF,
2839606,000001A1,false,Rx,0,5,94,C9,00,00,81,00,00,00,
2843281,00000083,false,Rx,0,8,FF,7F,FF,7F,FF,7F,FF,7F,
2843283,00000254,false,Rx,0,8,FF,7F,FF,7F,FF,7F,FF,7F,
2844813,0000019F,false,Rx,0,6,83,F4,F6,7F,00,10,00,00,
2844814,000001DB,false,Rx,0,8,64,00,0A,6E,C0,FF,00,FF,
2845994,000001E1,false,Rx,0,6,BE,F6,00,FF,FF,FF,00,00,
2846880,000002BB,false,Rx,0,5,7A,F2,3F,00,F2,00,00,00,
2848334,000000FA,false,Rx,0,8,02,C0,08,00,C8,07,D0,D7,
2848335,000000D9,false,Rx,0,8,43,F1,00,10,00,F0,7F,CF,
2849266,000002AE,false,Rx,0,8,FF,00,FF,64,FF,AF,64,00,
2849268,00000201,false,Rx,0,8,06,58,38,67,00,FF,F0,FF,
2849269,000002C4,false,Rx,0,8,00,00,00,FF,FF,00,00,0F,
2849270,0000029D,false,Rx,0,8,FF,FF,FF,FF,0F,FF,FF,FF,
2854432,00000199,false,Rx,0,6,A5,F5,D7,7E,00,20,00,00,
2854434,0000019A,false,Rx,0,6,3E,F5,40,7F,00,10,00,00,
2855902,00000096,false,Rx,0,8,64,00,54,AA,01,FF,FF,FF,
2858183,000000D9,false,Rx,0,8,A4,F2,00,10,00,F0,7F,CF,
2858185,000000A5,false,Rx,0,8,28,01,FF,F7,FF,00,00,C1,
2858187,000000A7,false,Rx,0,7,7C,F1,FF,F0,FF,FF,0F,00,
2858189,000000DC,false,Rx,0,6,5D,01,22,D0,07,EE,00,00,
2859665,00000302,false,Rx,0,7,E1,F5,B6,6F,01,00,00,00,
2859668,000003A1,false,Rx,0,8,00,01,00,03,00,C0,00,F0,
2859670,000001A1,false,Rx,0,5,2E,CA,00,00,81,00,00,00,
2862006,00000197,false,Rx,0,4,38,0D,FE,FC,00,00,00,00,
2863382,00000083,false,Rx,0,8,FF,7F,FF,7F,FF,7F,FF,7F,
2863384,00000254,false,Rx,0,8,FF,7F,FF,7F,FF,7F,FF,7F,
2864412,0000019F,false,Rx,0,6,A2,F6,F8,7F,00,10,00,00,
2864414,000002E0,false,Rx,0,6,2B,F2,75,40,24,FF,00,00,
2865867,00000065,false,Rx,0,8,00,8D,30,03,FF,FF,FF,FF,
2868110,000000D9,false,Rx,0,8,F9,F3,00,10,00,F0,7F,CF,
2868112,000001AE,false,Rx,0,3,07,65,1A,00,00,00,00,00,
2868114,000000FA,false,Rx,0,8,03,10,08,02,38,59,28,CA,
2868116,000001E4,false,Rx,0,8,84,07,61,61,11,11,11,11,
2868117,00000145,false,Rx,0,3,C8,9F,F0,00,00,00,00,00,
2869161,00000284,false,Rx,0,8,C8,80,0C,FF,FF,FF,FF,0F,
2869164,000002AE,false,Rx,0,8,FF,00,FF,64,FF,AF,64,00,
2869165,000002EB,false,Rx,0,8,69,FB,11,11,11,62,11,FF,
2871428,0000008F,false,Rx,0,8,FF,FF,00,7D,F2,FF,FF,FF,
2874188,000001C0,false,Rx,0,8,B8,3A,00,40,63,55,55,57,
2874192,00000376,false,Rx,0,3,33,10,11,00,00,00,00,00,
2874193,00000199,false,Rx,0,6,77,F7,E1,7E,00,20,00,00,
2874195,0000019A,false,Rx,0,6,51,F7,4A,7F,00,10,00,00,
2875756,000000CA,false,Rx,0,8,E1,2E,00,00,00,00,FD,F7,
2878093,000000D9,false,Rx,0,8,77,F4,00,10,00,F0,7F,CF,
2878096,000000A5,false,Rx,0,8,CF,02,FF,F7,FF,00,00,C1,
2878098,000000A7,false,Rx,0,7,B6,F2,FF,F0,FF,FF,0F,00,
2878099,000000DC,false,Rx,0,6,E3,02,22,D0,07,EE,00,00,
2879477,00000163,false,Rx,0,8,C2,F7,04,25,12,15,06,F5,
2879480,000001A1,false,Rx,0,5,B3,CB,00,00,81,00,00,00,
2882881,00000293,false,Rx,0,5,C4,A1,FE,FF,14,00,00,00,
2882885,00000083,false,Rx,0,8,FF,7F,FF,7F,FF,7F,FF,7F,
2882887,00000254,false,Rx,0,8,FF,7F,FF,7F,FF,7F,FF,7F,
2884453,0000019F,false,Rx,0,6,E8,F8,00,80,00,10,00,00,
2884455,0000036F,false,Rx,0,5,D4,FC,FE,FF,14,00,00,00,
2884457,000001DB,false,Rx,0,8,64,00,0A,6E,C0,FF,00,FF,
2885919,0000012F,false,Rx,0,8,32,78,FA,DD,FF,FF,FF,00,
2885921,00000096,false,Rx,0,8,64,00,54,AA,01,FF,FF,FF,
2888152,000000FA,false,Rx,0,8,05,86,12,08,76,76,76,00,
2888155,000000D9,false,Rx,0,8,2A,F5,00,10,00,F0,7F,CF,
2889418,000002AE,false,Rx,0,8,FF,00,FF,64,FF,AF,64,00,
2889421,00000397,false,Rx,0,7,C2,FF,FF,FF,FF,FF,FF,00,
2889423,00000173,false,Rx,0,8,C3,F6,00,02,20,00,D2,1F,
2889424,0000041E,false,Rx,0,8,00,F1,CF,FF,FF,FF,FF,FF,
2891957,000000AB,false,Rx,0,8,7E,F7,04,00,00,D0,FF,FF,
2891960,00000197,false,Rx,0,4,B4,0E,FE,FC,00,00,00,00,
2891961,00000276,false,Rx,0,8,C0,00,00,00,00,C0,FF,FF,
2893879,0000028E,false,Rx,0,5,1A,D1,FE,FF,14,00,00,00,
2893881,00000199,false,Rx,0,6,61,F9,E1,7E,00,20,00,00,
2893883,0000019A,false,Rx,0,6,FC,F9,40,7F,00,10,00,00,
2897852,00000294,false,Rx,0,5,86,C9,FE,FF,14,00,00,00,
2897855,000000D9,false,Rx,0,8,CD,F6,00,10,00,F0,7F,CF,
2897857,000000A5,false,Rx,0,8,92,03,FF,F7,FF,00,00,C1,
2897858,00000095,false,Rx,0,8,64,68,96,00,00,F0,00,00,
2898879,000001CE,false,Rx,0,8,64,68,96,00,00,F0,00,00,
2898882,000000A7,false,Rx,0,7,F0,F3,FF,F0,FF,FF,0F,00,
2898884,000000DC,false,Rx,0,6,89,03,22,D0,07,EE,00,00,
2898886,000001CF,false,Rx,0,8,64,68,96,00,00,F0,00,00,
2898887,00000201,false,Rx,0,8,1C,58,4D,67,00,FF,F0,FF,
2900561,00000302,false,Rx,0,7,EE,F9,B6,6F,01,00,00,00,
2900563,000003FD,false,Rx,0,5,E3,0B,20,FF,FF,00,00,00,
2900565,000001A1,false,Rx,0,5,47,CC,00,00,81,00,00,00,
2903304,00000083,false,Rx,0,8,FF,7F,FF,7F,FF,7F,FF,7F,
2903309,00000254,false,Rx,0,8,FF,7F,FF,7F,FF,7F,FF,7F,
2904421,0000019F,false,Rx,0,6,19,FA,10,80,00,10,00,00,
2905884,0000003C,false,Rx,0,8,70,A3,03,92,01,00,2A,FF,
2907932,0000031C,false,Rx,0,8,FF,3F,FF,FF,09,00,40,FD,
2907935,000000FA,false,Rx,0,8,05,FD,FD,FD,FD,FD,FD,E9,
2907936,000000D9,false,Rx,0,8,90,F7,00,10,00,F0,7F,CF,
2909287,000002AE,false,Rx,0,8,FF,00,FF,64,FF,AF,64,00,
2909289,00000265,false,Rx,0,8,F7,66,88,13,70,30,FF,FF,
2910570,000002A7,false,Rx,0,5,34,FA,FE,FF,14,00,00,00,
2910572,000001C3,false,Rx,0,8,4A,46,00,00,00,00,00,00,
2910574,000001DD,false,Rx,0,8,00,00,00,F0,FF,FF,FF,FF,
2911668,0000008F,false,Rx,0,8,FF,FF,00,7D,F2,FF,FF,FF,
2911671,0000015D,false,Rx,0,8,FF,FF,FF,0F,F0,FF,FF,FF,
2912905,0000021D,false,Rx,0,8,00,00,00,FF,FF,FF,FF,FF,
2912908,00000203,false,Rx,0,8,FE,86,00,FF,FF,FF,00,C0,
2914299,000001C0,false,Rx,0,8,E5,3B,00,40,63,55,55,57,
2914302,00000199,false,Rx,0,6,B5,FB,E1,7E,00,20,00,00,
2914303,0000019A,false,Rx,0,6,28,FB,40,7F,00,10,00,00,
2915728,00000314,false,Rx,0,5,50,80,1D,FF,FF,00,00,00,
2915731,00000096,false,Rx,0,8,64,00,54,AA,01,FF,FF,FF,
2915733,000002EB,false,Rx,0,8,E7,FC,11,11,11,62,11,FF,
2916893,000001E4,false,Rx,0,8,D8,08,61,61,11,11,11,11,
2918142,000000D9,false,Rx,0,8,CC,F8,00,10,00,F0,7F,CF,
2918145,000000A5,false,Rx,0,8,1C,04,FF,F7,FF,00,00,C1,
2918147,000000A7,false,Rx,0,7,3F,F4,FF,F0,FF,FF,0F,00,
2918149,000000DC,false,Rx,0,6,82,04,22,D0,07,EE,00,00,
2919379,0000032B,false,Rx,0,8,B5,00,B0,37,FF,FF,FF,FF,
2919382,000001A1,false,Rx,0,5,DA,CD,00,00,81,00,00,00,
2922007,00000197,false,Rx,0,4,BD,00,FE,FC,00,00,00,00,
2922009,000003CA,false,Rx,0,8,F3,60,60,FF,0A,76,FF,FF,
2922011,000007C3,false,Rx,0,8,13,01,0C,76,06,05,02,00,
2922013,000007C4,false,Rx,0,4,00,00,00,1F,00,00,00,00,
2923012,000007C5,false,Rx,0,8,00,00,02,01,00,01,01,AA,
2923016,000007C6,false,Rx,0,3,00,00,00,00,00,00,00,00,
2923018,00000083,false,Rx,0,8,FF,7F,FF,7F,FF,7F,FF,7F,
2923021,00000254,false,Rx,0,8,FF,7F,FF,7F,FF,7F,FF,7F,
2924407,000001BB,false,Rx,0,8,FF,FF,00,FF,FF,FF,FF,FF,
2924409,0000019F,false,Rx,0,6,34,FC,06,80,00,10,00,00,
2924411,000001DB,false,Rx,0,8,64,00,0A,6E,C0,FF,00,FF,
2928141,000000FA,false,Rx,0,8,00,B4,00,E0,7F,01,0A,C4,
2928143,000000D9,false,Rx,0,8,91,F9,00,10,00,F0,7F,CF,
2929408,000002AE,false,Rx,0,8,FF,00,FF,64,FF,AF,64,00,
2929410,000001B3,false,Rx,0,8,C4,12,00,09,00,FF,FF,94,
2931980,000001DF,false,Rx,0,8,00,00,00,00,DE,FF,FF,FF,
2933944,000002EC,false,Rx,0,8,F0,0C,00,00,FF,FF,07,00,
2933947,000002F3,false,Rx,0,8,FF,FF,00,FF,FF,FF,FF,FF,
2933948,00000199,false,Rx,0,6,D4,FD,E1,7E,00,20,00,00,
2933950,0000019A,false,Rx,0,6,9A,FD,45,7F,00,10,00,00,
2937306,00000510,false,Rx,0,8,40,10,00,02,03,92,01,00,
2937309,000000D9,false,Rx,0,8,76,FA,00,10,00,F0,7F,CF,
2938422,000000A5,false,Rx,0,8,41,05,FF,F7,FF,00,00,C1,
2938425,000000A7,false,Rx,0,7,79,F5,FF,F0,FF,FF,0F,00,
2938427,000000DC,false,Rx,0,6,E8,05,22,D0,07,EE,00,00,
2939707,00000173,false,Rx,0,8,25,FB,00,02,20,00,D2,1F,
2939709,00000302,false,Rx,0,7,EB,FD,B6,6F,01,00,00,00,
2939711,000001A1,false,Rx,0,5,60,CE,00,00,81,00,00,00,
2943370,00000083,false,Rx,0,8,FF,7F,FF,7F,FF,7F,FF,7F,
2943373,00000254,false,Rx,0,8,FF,7F,FF,7F,FF,7F,FF,7F,
2944680,0000019F,false,Rx,0,6,C7,FE,04,80,00,10,00,00,
2945844,000002A5,false,Rx,0,2,FE,FE,00,00,00,00,00,00,
2945847,00000096,false,Rx,0,8,64,00,54,AA,01,FF,FF,FF,
2946950,000002BB,false,Rx,0,5,E7,F3,3F,00,F2,00,00,00,
2948045,00000385,false,Rx,0,8,FF,FC,FF,5E,F5,3F,FF,DE,
2948048,000000D9,false,Rx,0,8,2B,FB,00,10,00,F0,7F,CF,
2948050,000000FA,false,Rx,0,8,02,C0,08,00,C8,07,D0,D7,
2948051,000002AE,false,Rx,0,8,FF,00,FF,64,FF,AF,64,00,
2949309,00000201,false,Rx,0,8,31,58,63,67,00,FF,F0,FF,
2949312,000001B9,false,Rx,0,8,00,FF,FF,FF,FF,FF,FF,FF,
2949314,000002C4,false,Rx,0,8,00,00,00,FF,FF,00,00,0F,
2949316,0000029D,false,Rx,0,8,FF,FF,FF,FF,0F,FF,FF,FF,
2951664,0000008F,false,Rx,0,8,FF,FF,00,7D,F2,FF,FF,FF,
2951666,00000197,false,Rx,0,4,32,01,FE,FC,00,00,00,00,
2954644,000001C0,false,Rx,0,8,6B,3C,00,40,63,55,55,57,
2954647,00000199,false,Rx,0,6,7C,F0,E1,7E,00,20,00,00,
2954649,0000019A,false,Rx,0,6,32,F0,45,7F,00,10,00,00,
2955793,000000CA,false,Rx,0,8,E0,20,00,00,00,00,FD,F7,
2958369,000000D9,false,Rx,0,8,A5,FC,00,10,00,F0,7F,CF,
2958371,000000A5,false,Rx,0,8,A6,06,FF,F7,FF,00,00,C1,
2958373,00000095,false,Rx,0,8,64,68,96,00,00,F0,00,00,
2958375,000001CE,false,Rx,0,8,64,68,96,00,00,F0,00,00,
2958376,000000A7,false,Rx,0,7,B3,F6,FF,F0,FF,FF,0F,00,
2959635,000000DC,false,Rx,0,6,56,06,22,D0,07,EE,00,00,
2959637,000001CF,false,Rx,0,8,64,68,96,00,00,F0,00,00,
2960682,000001A1,false,Rx,0,5,95,C0,00,00,81,00,00,00,
2960685,0000026B,false,Rx,0,8,05,17,FD,FF,FF,FF,FF,FF,
2962934,00000296,false,Rx,0,5,05,E2,FE,FF,14,00,00,00,
2962938,00000083,false,Rx,0,8,FF,7F,FF,7F,FF,7F,FF,7F,
2962941,00000254,false,Rx,0,8,FF,7F,FF,7F,FF,7F,FF,7F,
2964419,0000019F,false,Rx,0,6,D2,F1,02,80,00,10,00,00,
2964422,0000036E,false,Rx,0,5,1B,FC,FE,FF,14,00,00,00,
2964424,000001DB,false,Rx,0,8,64,00,0A,6E,C0,FF,00,FF,
2964426,000002E0,false,Rx,0,6,41,F3,75,40,24,FF,00,00,
2965880,00000065,false,Rx,0,8,E7,8E,30,03,FF,FF,FF,FF,
2967948,000000FA,false,Rx,0,8,03,10,08,02,38,59,28,CA,
2967951,000000D9,false,Rx,0,8,F8,FD,00,10,00,F0,7F,CF,
2967954,000002AE,false,Rx,0,8,FF,00,FF,64,FF,AF,64,00,
2967957,00000284,false,Rx,0,8,C8,80,0C,FF,FF,FF,FF,0F,
2969025,000001AE,false,Rx,0,3,07,65,1A,00,00,00,00,00,
2969028,000001E4,false,Rx,0,8,85,09,61,61,11,11,11,11,
2969031,000003AD,false,Rx,0,8,00,F0,FF,FF,FF,52,FF,FF,
2969034,000002EB,false,Rx,0,8,BA,FD,11,11,11,62,11,FF,
2972168,000000C0,false,Rx,0,2,F1,40,00,00,00,00,00,00,
2974048,00000376,false,Rx,0,3,7F,11,11,00,00,00,00,00,
2974051,00000199,false,Rx,0,6,A8,F2,E1,7E,00,20,00,00,
2974054,0000019A,false,Rx,0,6,8E,F2,4A,7F,00,10,00,00,
2975768,000005C0,false,Rx,0,8,29,FF,7F,00,FF,FF,FF,FF,
2975771,00000096,false,Rx,0,8,64,00,54,AA,01,FF,FF,FF,
2975774,00000346,false,Rx,0,4,5F,51,21,FF,00,00,00,00,
2978088,000000D9,false,Rx,0,8,1F,FE,00,10,00,F0,7F,CF,
2978092,000000A5,false,Rx,0,8,FB,07,FF,F7,FF,00,00,C1,
2978095,000000A7,false,Rx,0,7,F5,F7,FF,F0,FF,FF,0F,00,
2978097,000000DC,false,Rx,0,6,3C,07,22,D0,07,EE,00,00,
2979376,00000163,false,Rx,0,8,6E,F2,04,25,12,15,04,F5,
2979380,00000302,false,Rx,0,7,2E,F2,B6,6F,01,00,00,00,
2979382,000001A1,false,Rx,0,5,08,C1,00,00,81,00,00,00,
2981944,00000197,false,Rx,0,4,BE,02,FE,FC,00,00,00,00,
2983272,00000083,false,Rx,0,8,FF,7F,FF,7F,FF,7F,FF,7F,
2983275,00000254,false,Rx,0,8,FF,7F,FF,7F,FF,7F,FF,7F,
2984361,0000019F,false,Rx,0,6,48,F3,06,80,00,10,00,00,
2984364,00000301,false,Rx,0,7,07,C3,04,72,FF,FF,2F,00,
2985798,0000012F,false,Rx,0,8,6F,79,FA,DD,FF,FF,FF,00,
2987794,0000030C,false,Rx,0,5,60,F3,FE,FF,14,00,00,00,
2987797,000000FA,false,Rx,0,8,05,86,12,08,76,76,76,00,
2987799,000000D9,false,Rx,0,8,1E,F0,00,10,00,F0,7F,CF,
2987801,000002AE,false,Rx,0,8,FF,00,FF,64,FF,AF,64,00,
2989059,000003E9,false,Rx,0,8,FF,FF,0F,FF,FF,FF,FF,FF,
2989062,00000173,false,Rx,0,8,4D,F1,00,02,20,00,D2,1F,
2990083,000002A7,false,Rx,0,5,A9,FB,FE,FF,14,00,00,00,
2991339,0000008F,false,Rx,0,8,FF,FF,00,7D,F2,FF,FF,FF,
2994150,000001C0,false,Rx,0,8,36,3D,00,40,63,55,55,57,
2994153,00000199,false,Rx,0,6,C9,F4,E1,7E,00,20,00,00,
2994157,0000019A,false,Rx,0,6,1A,F4,44,7F,00,10,00,00,
2996130,0000032E,false,Rx,0,8,56,C8,FF,8C,84,7E,00,20,
2997625,0000037F,false,Rx,0,2,FF,F0,00,00,00,00,00,00,
2997628,00000297,false,Rx,0,7,7C,F3,F0,E0,F0,F0,A8,00,
2997633,000000D9,false,Rx,0,8,43,F1,00,10,00,F0,7F,CF,
2997636,000000A5,false,Rx,0,8,A7,08,FF,F7,FF,00,00,C1,
2998863,000000A7,false,Rx,0,7,30,F8,FF,F0,FF,FF,0F,00,
2998868,000000DC,false,Rx,0,6,40,08,22,D0,07,EE,00,00,
2998870,000003FD,false,Rx,0,5,17,0C,20,FF,FF,00,00,00,
2998872,00000201,false,Rx,0,8,47,58,78,67,00,FF,F0,FF,
2998875,000003B4,false,Rx,0,8,FF,FF,FC,FF,F8,F8,00,FF,
3000206,000001A1,false,Rx,0,5,B2,C2,00,00,81,00,00,00,
3003271,00000083,false,Rx,0,8,FF,7F,FF,7F,FF,7F,FF,7F,
3003276,00000254,false,Rx,0,8,FF,7F,FF,7F,FF,7F,FF,7F,
3004374,0000019F,false,Rx,0,6,29,F5,06,80,00,10,00,00,
3004377,000001DB,false,Rx,0,8,64,00,0A,6E,C0,FF,00,FF,
3005792,0000003C,false,Rx,0,8,FE,A4,03,92,01,00,2A,FF,
3005795,00000096,false,Rx,0,8,64,00,54,AA,01,FF,FF,FF,
3007935,000000FA,false,Rx,0,8,05,FD,FD,FD,FD,FD,FD,E9,
3007938,000000D9,false,Rx,0,8,A4,F2,00,10,00,F0,7F,CF,
3007940,000002AE,false,Rx,0,8,FF,00,FF,64,FF,AF,64,00,
3009086,000001C8,false,Rx,0,8,00,00,00,00,F0,31,FF,FF,
3009091,00000265,false,Rx,0,8,F7,66,88,13,70,30,FF,FF,
3009093,00000340,false,Rx,0,2,F3,FF,00,00,00,00,00,00,
3009096,0000042B,false,Rx,0,4,95,1F,72,30,00,00,00,00,
3011941,00000197,false,Rx,0,4,31,03,FE,FC,00,00,00,00,
3014396,00000199,false,Rx,0,6,A6,F6,EB,7E,00,20,00,00,
3014399,0000019A,false,Rx,0,6,3B,F6,4A,7F,00,10,00,00,
3016238,000002EB,false,Rx,0,8,5D,FE,11,11,11,62,11,FF,
3016241,000001E4,false,Rx,0,8,62,0A,61,61,11,11,11,11,
3018022,000000D9,false,Rx,0,8,F9,F3,00,10,00,F0,7F,CF,
3018025,000000A5,false,Rx,0,8,FA,09,FF,F7,FF,00,00,C1,
3018028,00000095,false,Rx,0,8,64,68,96,00,00,F0,00,00,
3018030,000001CE,false,Rx,0,8,64,68,96,00,00,F0,00,00,
3018032,000000A7,false,Rx,0,7,76,F9,FF,F0,FF,FF,0F,00,
3019169,000000DC,false,Rx,0,6,2A,09,22,D0,07,EE,00,00,
3019173,000001CF,false,Rx,0,8,64,68,96,00,00,F0,00,00,
3019175,00000302,false,Rx,0,7,2B,F6,B6,6F,01,00,00,00,
3019179,0000032B,false,Rx,0,8,B5,00,B2,37,FF,FF,FF,FF,
3020265,000001A1,false,Rx,0,5,2F,C3,00,00,81,00,00,00,
3023304,00000083,false,Rx,0,8,FF,7F,FF,7F,FF,7F,FF,7F,
3023308,00000254,false,Rx,0,8,FF,7F,FF,7F,FF,7F,FF,7F,
3024364,0000019F,false,Rx,0,6,B3,F7,02,80,00,10,00,00,
3028022,000000FA,false,Rx,0,8,00,C4,00,E0,7F,01,0A,C4,
3028024,000000D9,false,Rx,0,8,77,F4,00,10,00,F0,7F,CF,
3028026,000002AE,false,Rx,0,8,FF,00,FF,64,FF,AF,64,00,
3029145,000001B3,false,Rx,0,8,C4,12,00,0A,00,FF,FF,95,
3030519,0000008F,false,Rx,0,8,FF,FF,00,7D,F2,FF,FF,FF,
3034150,000001C0,false,Rx,0,8,D1,3E,00,40,63,55,55,57,
3034153,00000199,false,Rx,0,6,0B,F8,E1,7E,00,20,00,00,
3034154,0000019A,false,Rx,0,6,45,F8,45,7F,00,10,00,00,
3035711,000000CA,false,Rx,0,8,BD,21,00,00,00,00,FD,F7,
3035714,00000096,false,Rx,0,8,64,00,54,AA,01,FF,FF,FF,
3035715,00000349,false,Rx,0,5,FE,FF,FE,FF,FF,00,00,00,
3037312,00000510,false,Rx,0,8,40,10,00,02,03,92,01,00,
3037315,000000D9,false,Rx,0,8,2A,F5,00,10,00,F0,7F,CF,
3038389,000000A5,false,Rx,0,8,1D,0A,FF,F7,FF,00,00,C1,
3038391,000000A7,false,Rx,0,7,BC,FA,FF,F0,FF,FF,0F,00,
3038394,000000DC,false,Rx,0,6,94,0A,22,D0,07,EE,00,00,
3039446,00000173,false,Rx,0,8,C3,F6,00,02,20,00,D2,1F,
3039449,000001A1,false,Rx,0,5,DB,C4,00,00,81,00,00,00,
3041976,00000197,false,Rx,0,4,BB,04,FE,FC,00,00,00,00,
3043333,00000083,false,Rx,0,8,FF,7F,FF,7F,FF,7F,FF,7F,
3043336,00000254,false,Rx,0,8,FF,7F,FF,7F,FF,7F,FF,7F,
3044424,0000019F,false,Rx,0,6,CC,F9,04,80,00,10,00,00,
3044427,0000036F,false,Rx,0,5,49,FD,FE,FF,14,00,00,00,
3044428,000001DB,false,Rx,0,8,64,00,0A,6E,C0,FF,00,FF,
3045867,000001E1,false,Rx,0,6,D4,F7,00,FF,FF,FF,00,00,
3046894,000002BB,false,Rx,0,5,13,F4,3F,00,F2,00,00,00,
3048071,000000FA,false,Rx,0,8,02,C0,08,00,C8,07,D0,D7,
3048073,000000D9,false,Rx,0,8,CD,F6,00,10,00,F0,7F,CF,
3048075,000002AE,false,Rx,0,8,FF,00,FF,64,FF,AF,64,00,
3049293,00000201,false,Rx,0,8,5C,58,8E,67,00,FF,F0,FF,
3049296,000002C4,false,Rx,0,8,00,00,00,FF,FF,00,00,0F,
3049297,0000029D,false,Rx,0,8,FF,FF,FF,FF,0F,FF,FF,FF,
3054462,00000199,false,Rx,0,6,64,FA,EB,7E,00,20,00,00,
3054464,0000019A,false,Rx,0,6,D0,FA,36,7F,00,10,00,00,
3058067,000000D9,false,Rx,0,8,90,F7,00,10,00,F0,7F,CF,
3058070,000000A5,false,Rx,0,8,40,0B,FF,F7,FF,00,00,C1,
3058072,000000A7,false,Rx,0,7,FA,FB,FF,F0,FF,FF,0F,00,
3059125,000000DC,false,Rx,0,6,FE,0B,22,D0,07,EE,00,00,
3059128,0000029C,false,Rx,0,8,FD,FF,0D,00,FD,E4,FF,FF,
3059130,00000302,false,Rx,0,7,24,FA,B6,6F,01,00,00,00,
3059132,000003A1,false,Rx,0,8,00,01,00,03,00,C0,00,F0,
3060334,000001A1,false,Rx,0,5,46,C5,00,00,81,00,00,00,
3063334,00000083,false,Rx,0,8,FF,7F,FF,7F,FF,7F,FF,7F,
3063336,00000254,false,Rx,0,8,FF,7F,FF,7F,FF,7F,FF,7F,
3064414,0000019F,false,Rx,0,6,3F,FB,06,80,00,10,00,00,
3064417,000002E0,false,Rx,0,6,4A,F4,75,40,24,FF,00,00,
3065927,00000065,false,Rx,0,8,E6,80,30,03,FF,FF,FF,FF,
3065929,00000096,false,Rx,0,8,64,00,54,AA,01,FF,FF,FF,
3067885,000001AE,false,Rx,0,3,07,65,1A,00,00,00,00,00,
3067888,000000FA,false,Rx,0,8,03,10,08,02,38,59,28,CA,
3067890,000000D9,false,Rx,0,8,CC,F8,00,10,00,F0,7F,CF,
3067892,000001E4,false,Rx,0,8,3F,0B,61,61,11,11,11,11,
3067894,00000145,false,Rx,0,3,C8,9F,F0,00,00,00,00,00,
3068980,000002AE,false,Rx,0,8,FF,00,FF,64,FF,AF,64,00,
3068983,00000284,false,Rx,0,8,C8,80,0C,FF,FF,FF,FF,0F,
3068985,000002EB,false,Rx,0,8,5C,F0,11,11,11,62,11,FF,
3068987,0000019D,false,Rx,0,8,0A,3E,92,02,FF,FF,FF,FF,
3070145,000002A7,false,Rx,0,5,5D,FC,FE,FF,14,00,00,00,
3071164,0000026C,false,Rx,0,8,AA,8C,F1,FF,FF,FF,FF,FF,
3071166,0000008F,false,Rx,0,8,FF,FF,00,7D,F2,FF,FF,FF,
3071168,00000197,false,Rx,0,4,34,05,FE,FC,00,00,00,00,
3074178,000001C0,false,Rx,0,8,D0,30,00,40,63,55,55,57,
3074181,00000376,false,Rx,0,3,AB,12,11,00,00,00,00,00,
3074182,00000199,false,Rx,0,6,BE,FC,E1,7E,00,20,00,00,
3074185,0000019A,false,Rx,0,6,98,FC,4A,7F,00,10,00,00,
3075680,00000314,false,Rx,0,5,50,80,1D,FF,FF,00,00,00,
3075682,000001BA,false,Rx,0,8,FF,FF,FC,FF,FF,FF,51,F0,
3078082,000000D9,false,Rx,0,8,91,F9,00,10,00,F0,7F,CF,
3078085,000000A5,false,Rx,0,8,CE,0C,FF,F7,FF,00,00,C1,
3078086,00000095,false,Rx,0,8,64,68,96,00,00,F0,00,00,
3078088,000000A7,false,Rx,0,7,35,FC,FF,F0,FF,FF,0F,00,
3078090,000000DC,false,Rx,0,6,F5,0C,22,D0,07,EE,00,00,
3079228,000001CE,false,Rx,0,8,64,68,96,00,00,F0,00,00,
3079231,000001CF,false,Rx,0,8,64,68,96,00,00,F0,00,00,
3079232,00000163,false,Rx,0,8,F7,FC,04,25,12,15,06,F5,
3080262,000001A1,false,Rx,0,5,FC,C6,00,00,81,00,00,00,
3083331,00000083,false,Rx,0,8,FF,7F,FF,7F,FF,7F,FF,7F,
3083334,00000254,false,Rx,0,8,FF,7F,FF,7F,FF,7F,FF,7F,
3083336,0000024A,false,Rx,0,8,02,01,00,00,00,00,F4,FF,
3084519,0000019F,false,Rx,0,6,E5,FD,0C,80,00,10,00,00,
3084522,000001DB,false,Rx,0,8,64,00,0A,6E,C0,FF,00,FF,
3085940,0000012F,false,Rx,0,8,88,7A,FA,DD,FF,FF,FF,00,
3087020,00000540,false,Rx,0,8,40,40,00,00,00,00,01,00,
3087023,000000FA,false,Rx,0,8,05,86,12,08,76,76,76,00,
3088269,000000D9,false,Rx,0,8,76,FA,00,10,00,F0,7F,CF,
3088272,000002AE,false,Rx,0,8,FF,00,FF,64,FF,AF,64,00,
3089445,00000173,false,Rx,0,8,25,FB,00,02,20,00,D2,1F,
3092021,000000AB,false,Rx,0,8,22,F8,04,00,00,D0,FF,FF,
3092023,00000276,false,Rx,0,8,C0,00,00,00,00,C0,FF,FF,
3093578,00000200,false,Rx,0,8,02,00,34,FF,FF,00,FF,C0,
3093580,00000199,false,Rx,0,6,D1,FE,EB,7E,00,20,00,00,
3094676,0000019A,false,Rx,0,6,4C,FE,4A,7F,00,10,00,00,
3095896,00000096,false,Rx,0,8,64,00,54,AA,01,FF,FF,FF,
3098138,000000D9,false,Rx,0,8,2B,FB,00,10,00,F0,7F,CF,
3098141,000000A5,false,Rx,0,8,93,0D,FF,F7,FF,00,00,C1,
3098143,000000A7,false,Rx,0,7,73,FD,FF,F0,FF,FF,0F,00,
3099101,000000DC,false,Rx,0,6,9F,0D,22,D0,07,EE,00,00,
3099103,000003FD,false,Rx,0,5,8A,0D,20,FF,FF,00,00,00,
3099105,00000201,false,Rx,0,8,72,58,A3,67,00,FF,F0,FF,
3099107,00000302,false,Rx,0,7,21,FE,B6,6F,01,00,00,00,
3100274,000001A1,false,Rx,0,5,61,C7,00,00,81,00,00,00,
3101943,00000197,false,Rx,0,4,B8,06,FE,FC,00,00,00,00,
3103427,00000083,false,Rx,0,8,FF,7F,FF,7F,FF,7F,FF,7F,
3103430,00000254,false,Rx,0,8,FF,7F,FF,7F,FF,7F,FF,7F,
3103434,0000019F,false,Rx,0,6,F6,F0,06,80,00,10,00,00,
3105846,0000003C,false,Rx,0,8,A3,A5,03,92,01,00,2A,FF,
3107864,0000031C,false,Rx,0,8,FF,3F,FF,FF,09,00,40,FD,
3107866,000000D9,false,Rx,0,8,A5,FC,00,10,00,F0,7F,CF,
3107868,000002AE,false,Rx,0,8,FF,00,FF,64,FF,AF,64,00,
3109441,000002FA,false,Rx,0,8,FD,FF,FF,17,3B,17,3B,14,
3109444,00000265,false,Rx,0,8,F7,66,88,13,70,30,FF,FF,
3109446,0000038C,false,Rx,0,2,F7,FF,00,00,00,00,00,00,
3109448,000001DD,false,Rx,0,8,00,00,00,F0,FF,FF,FF,FF,
3110635,000001C3,false,Rx,0,8,17,47,00,00,00,00,00,00,
3110637,0000008F,false,Rx,0,8,FF,FF,00,7D,F2,FF,FF,FF,
3112875,000000FA,false,Rx,0,8,05,FD,FD,FD,FD,FD,FD,E9,
3112877,00000203,false,Rx,0,8,A3,87,00,FF,FF,FF,00,C0,
3112879,0000021D,false,Rx,0,8,00,00,00,FF,FF,FF,FF,FF,
3114133,000001C0,false,Rx,0,8,8D,31,00,40,63,55,55,57,
3114136,00000199,false,Rx,0,6,AD,F1,EB,7E,00,20,00,00,
3114138,0000019A,false,Rx,0,6,30,F1,4A,7F,00,10,00,00,
3115830,000000CA,false,Rx,0,8,5A,22,00,00,00,00,FD,F7,
3116892,000001E4,false,Rx,0,8,B1,0C,61,61,11,11,11,11,
3116895,000002EB,false,Rx,0,8,01,F1,11,11,11,62,11,FF,
3118083,000000D9,false,Rx,0,8,F8,FD,00,10,00,F0,7F,CF,
3118085,000000A5,false,Rx,0,8,74,0E,FF,F7,FF,00,00,C1,
3118087,000000A7,false,Rx,0,7,B9,FE,FF,F0,FF,FF,0F,00,
3119105,000000DC,false,Rx,0,6,21,0E,22,D0,07,EE,00,00,
3119108,0000032B,false,Rx,0,8,B5,00,B3,37,FF,FF,FF,FF,
3120239,000001A1,false,Rx,0,5,09,C8,00,00,81,00,00,00,
3123282,00000083,false,Rx,0,8,FF,7F,FF,7F,FF,7F,FF,7F,
3123287,00000254,false,Rx,0,8,FF,7F,FF,7F,FF,7F,FF,7F,
3123290,000001BB,false,Rx,0,8,FF,FF,00,FF,FF,FF,FF,FF,
3124480,0000019F,false,Rx,0,6,6C,F2,02,80,00,10,00,00,
3124483,0000036E,false,Rx,0,5,86,FD,FE,FF,14,00,00,00,
3124485,000001DB,false,Rx,0,8,64,00,0A,6E,C0,FF,00,FF,
3126298,00000096,false,Rx,0,8,64,00,54,AA,01,FF,FF,FF,
3126301,0000043D,false,Rx,0,8,0A,D4,CF,68,51,1B,80,61,
3128193,000000D9,false,Rx,0,8,1F,FE,00,10,00,F0,7F,CF,
3128195,000002AE,false,Rx,0,8,FF,00,FF,64,FF,AF,64,00,
3129281,000001B3,false,Rx,0,8,C4,12,00,0B,00,FF,FF,96,
3131996,00000197,false,Rx,0,4,37,07,FE,FC,00,00,00,00,
3134443,00000199,false,Rx,0,6,C2,F3,E1,7E,00,20,00,00,
3134445,0000019A,false,Rx,0,6,8C,F3,45,7F,00,10,00,00,
3136206,000000FA,false,Rx,0,8,00,D4,00,E0,7F,01,0A,C4,
3137274,00000510,false,Rx,0,8,40,10,00,02,03,92,01,00,
3137275,000000D9,false,Rx,0,8,1E,F0,00,10,00,F0,7F,CF,
3138292,000000A5,false,Rx,0,8,75,00,FF,F7,FF,00,00,C1,
3138293,000000A7,false,Rx,0,7,3A,F0,FF,F0,FF,FF,0F,00,
3138294,000000DC,false,Rx,0,6,37,00,22,D0,07,EE,00,00,
3139439,00000173,false,Rx,0,8,4D,F1,00,02,20,00,D2,1F,
3139440,00000302,false,Rx,0,7,68,F3,B6,6F,01,00,00,00,
3139441,000001A1,false,Rx,0,5,94,C9,00,00,81,00,00,00,
3143314,00000083,false,Rx,0,8,FF,7F,FF,7F,FF,7F,FF,7F,
3143315,00000254,false,Rx,0,8,FF,7F,FF,7F,FF,7F,FF,7F,
3144384,0000019F,false,Rx,0,6,83,F4,F6,7F,00,10,00,00,
3144386,00000095,false,Rx,0,8,64,68,96,00,00,F0,00,00,
3144386,000001CE,false,Rx,0,8,64,68,96,00,00,F0,00,00,
3144387,000001CF,false,Rx,0,8,64,68,96,00,00,F0,00,00,
3145780,000002A5,false,Rx,0,2,FE,FE,00,00,00,00,00,00,
3146841,000002BB,false,Rx,0,5,8E,F5,3F,00,F2,00,00,00,
3146841,0000030C,false,Rx,0,5,29,F4,C3,01,15,00,00,00,
3148028,000000FA,false,Rx,0,8,02,C0,08,00,C8,07,D0,D7,
3148029,000000D9,false,Rx,0,8,43,F1,00,10,00,F0,7F,CF,
3148030,000002AE,false,Rx,0,8,FF,00,FF,64,FF,AF,64,00,
3149246,00000201,false,Rx,0,8,87,58,B9,67,00,FF,F0,FF,
3149247,000002C4,false,Rx,0,8,00,00,00,FF,FF,00,00,0F,
3149247,0000029D,false,Rx,0,8,FF,FF,FF,FF,0F,FF,FF,FF,
3149248,000002A7,false,Rx,0,5,C0,FD,FE,FF,14,00,00,00,
3151321,0000008F,false,Rx,0,8,FF,FF,00,7D,F2,FF,FF,FF,
3154116,000001C0,false,Rx,0,8,6A,32,00,40,63,55,55,57,
3154117,00000199,false,Rx,0,6,A5,F5,D7,7E,00,20,00,00,
3154117,0000019A,false,Rx,0,6,85,F5,4A,7F,00,10,00,00,
3155813,00000096,false,Rx,0,8,64,00,54,AA,01,FF,FF,FF,
3158088,000000D9,false,Rx,0,8,A4,F2,00,10,00,F0,7F,CF,
3158089,000000A5,false,Rx,0,8,28,01,FF,F7,FF,00,00,C1,
3158089,000000A7,false,Rx,0,7,7C,F1,FF,F0,FF,FF,0F,00,
3159145,000000DC,false,Rx,0,6,5D,01,22,D0,07,EE,00,00,
3160264,000001A1,false,Rx,0,5,2E,CA,00,00,81,00,00,00,
3161904,00000197,false,Rx,0,4,B1,08,FE,FC,00,00,00,00,
3163284,00000083,false,Rx,0,8,FF,7F,FF,7F,FF,7F,FF,7F,
3163285,00000254,false,Rx,0,8,FF,7F,FF,7F,FF,7F,FF,7F,
3164345,0000019F,false,Rx,0,6,B0,F6,04,80,00,10,00,00,
3164346,000001DB,false,Rx,0,8,64,00,0A,6E,C0,FF,00,FF,
3164347,000002E0,false,Rx,0,6,20,F5,75,40,24,FF,00,00,
3165826,00000065,false,Rx,0,8,BB,81,30,03,FF,FF,FF,FF,
3168006,000000FA,false,Rx,0,8,03,10,08,02,38,59,28,CA,
3168006,000000D9,false,Rx,0,8,F9,F3,00,10,00,F0,7F,CF,
3168007,000002AE,false,Rx,0,8,FF,00,FF,64,FF,AF,64,00,
3168007,00000284,false,Rx,0,8,C8,80,0C,FF,FF,FF,FF,0F,
3169303,000001AE,false,Rx,0,3,07,65,1A,00,00,00,00,00,
3169303,000001E4,false,Rx,0,8,EC,0D,61,61,11,11,11,11,
3170476,000002EB,false,Rx,0,8,E6,F2,11,11,11,62,11,FF,
3171885,00000102,false,Rx,0,8,9F,94,F0,FF,FF,FF,FF,FF,
3171886,00000105,false,Rx,0,8,63,A4,00,F0,FF,FF,FF,FF,
3171886,000000C0,false,Rx,0,2,F2,40,00,00,00,00,00,00,
3174033,00000376,false,Rx,0,3,E7,13,11,00,00,00,00,00,
3174033,00000199,false,Rx,0,6,CC,F7,EB,7E,00,20,00,00,
3174034,0000019A,false,Rx,0,6,39,F7,45,7F,00,10,00,00,
3178612,000000D9,false,Rx,0,8,77,F4,00,10,00,F0,7F,CF,
3178613,000000A5,false,Rx,0,8,CF,02,FF,F7,FF,00,00,C1,
3178613,000000A7,false,Rx,0,7,B6,F2,FF,F0,FF,FF,0F,00,
3178614,000000DC,false,Rx,0,6,E3,02,22,D0,07,EE,00,00,
3179402,00000163,false,Rx,0,8,C7,F7,04,25,13,15,04,F5,
3179402,00000302,false,Rx,0,7,6D,F7,B6,6F,01,00,00,00,
3179403,00000378,false,Rx,0,8,48,F5,61,21,FF,10,FF,6F,
3179403,000001A1,false,Rx,0,5,B3,CB,00,00,81,00,00,00,
3183591,00000083,false,Rx,0,8,FF,7F,FF,7F,FF,7F,FF,7F,
3183592,00000254,false,Rx,0,8,FF,7F,FF,7F,FF,7F,FF,7F,
3184428,0000019F,false,Rx,0,6,CF,F8,02,80,00,10,00,00,
3184428,00000301,false,Rx,0,7,C7,C8,04,72,FF,FF,2F,00,
3185786,0000012F,false,Rx,0,8,D5,7B,FA,DD,FF,FF,FF,00,
3185787,00000096,false,Rx,0,8,64,00,54,AA,01,FF,FF,FF,
3187955,000000FA,false,Rx,0,8,05,86,12,08,76,76,76,00,
3187956,000000D9,false,Rx,0,8,2A,F5,00,10,00,F0,7F,CF,
3187956,000002AE,false,Rx,0,8,FF,00,FF,64,FF,AF,64,00,
3189603,000003E9,false,Rx,0,8,FF,FF,0F,FF,FF,FF,FF,FF,
3189603,00000173,false,Rx,0,8,C3,F6,00,02,20,00,D2,1F,
3191282,0000008F,false,Rx,0,8,FF,FF,00,7D,F2,FF,FF,FF,
3191283,00000197,false,Rx,0,4,3E,09,FE,FC,00,00,00,00,
3194148,000001C0,false,Rx,0,8,37,33,00,40,63,55,55,57,
3194149,00000199,false,Rx,0,6,61,F9,E1,7E,00,20,00,00,
3194149,0000019A,false,Rx,0,6,2F,F9,45,7F,00,10,00,00,
3195807,000000CA,false,Rx,0,8,07,23,00,00,00,00,FD,F7,
3195807,000003D7,false,Rx,0,8,A7,08,4C,81,3C,8E,D1,14,
3197905,00000297,false,Rx,0,7,B3,F4,F0,E0,F0,F0,A8,00,
3197906,0000037F,false,Rx,0,2,FF,F0,00,00,00,00,00,00,
3197906,000000D9,false,Rx,0,8,CD,F6,00,10,00,F0,7F,CF,
3197906,000000A5,false,Rx,0,8,92,03,FF,F7,FF,00,00,C1,
3197907,00000095,false,Rx,0,8,64,68,96,00,00,F0,00,00,
3199031,000000A7,false,Rx,0,7,F0,F3,FF,F0,FF,FF,0F,00,
3199031,000000DC,false,Rx,0,6,89,03,22,D0,07,EE,00,00,
3199032,000001CE,false,Rx,0,8,64,68,96,00,00,F0,00,00,
3199032,000001CF,false,Rx,0,8,64,68,96,00,00,F0,00,00,
3199032,00000201,false,Rx,0,8,9C,58,CD,67,00,FF,F0,FF,
3200611,000003B4,false,Rx,0,8,FF,FF,FC,FF,F8,F8,00,FF,
3200612,000001A1,false,Rx,0,5,47,CC,00,00,81,00,00,00,
3200612,000003FD,false,Rx,0,5,30,0E,20,FF,FF,00,00,00,
3203147,00000293,false,Rx,0,5,7E,A2,FE,FF,14,00,00,00,
3203147,00000083,false,Rx,0,8,FF,7F,FF,7F,FF,7F,FF,7F,
3203147,00000254,false,Rx,0,8,FF,7F,FF,7F,FF,7F,FF,7F,
3204370,0000019F,false,Rx,0,6,47,FA,FA,7F,00,10,00,00,
3204370,0000036F,false,Rx,0,5,F3,FE,FE,FF,14,00,00,00,
3204371,000001DB,false,Rx,0,8,64,00,0A,6E,C0,FF,00,FF,
3205918,0000003C,false,Rx,0,8,44,A6,03,92,01,00,2A,FF,
3208610,000000FA,false,Rx,0,8,05,FD,FD,FD,FD,FD,FD,E9,
3208611,000000D9,false,Rx,0,8,90,F7,00,10,00,F0,7F,CF,
3208611,000002AE,false,Rx,0,8,FF,00,FF,64,FF,AF,64,00,
3209588,000001C8,false,Rx,0,8,00,00,00,00,F0,31,FF,FF,
3209589,00000265,false,Rx,0,8,F7,66,88,13,70,30,FF,FF,
3209589,00000340,false,Rx,0,2,F3,FF,00,00,00,00,00,00,
3209590,0000042B,false,Rx,0,4,95,1F,72,30,00,00,00,00,
3210619,0000026B,false,Rx,0,8,59,18,FD,FF,FF,FF,FF,FF,
3214614,0000028E,false,Rx,0,5,A0,D2,FE,FF,14,00,00,00,
3214615,00000199,false,Rx,0,6,B5,FB,E1,7E,00,20,00,00,
3214615,0000019A,false,Rx,0,6,FB,FB,45,7F,00,10,00,00,
3215759,00000096,false,Rx,0,8,64,00,54,AA,01,FF,FF,FF,
3215759,000002EB,false,Rx,0,8,BB,F3,11,11,11,62,11,FF,
3215760,000001E4,false,Rx,0,8,0B,0E,61,61,11,11,11,11,
3217762,00000294,false,Rx,0,5,3C,CA,FE,FF,14,00,00,00,
3217762,000000D9,false,Rx,0,8,CC,F8,00,10,00,F0,7F,CF,
3217762,000000A5,false,Rx,0,8,1C,04,FF,F7,FF,00,00,C1,
3218926,000000A7,false,Rx,0,7,3F,F4,FF,F0,FF,FF,0F,00,
3218926,000000DC,false,Rx,0,6,82,04,22,D0,07,EE,00,00,
3218926,0000032B,false,Rx,0,8,B5,00,B4,37,FF,FF,FF,FF,
3218927,00000302,false,Rx,0,7,62,FB,B6,6F,01,00,00,00,
3220284,000001A1,false,Rx,0,5,DA,CD,00,00,81,00,00,00,
3221925,00000197,false,Rx,0,4,B2,0A,FE,FC,00,00,00,00,
3223303,00000083,false,Rx,0,8,FF,7F,FF,7F,FF,7F,FF,7F,
3223303,00000254,false,Rx,0,8,FF,7F,FF,7F,FF,7F,FF,7F,
3224367,0000019F,false,Rx,0,6,A8,FC,0E,80,00,10,00,00,
3227963,000000FA,false,Rx,0,8,00,E4,00,E0,7F,01,0A,C4,
3227964,000000D9,false,Rx,0,8,91,F9,00,10,00,F0,7F,CF,
3229009,000002AE,false,Rx,0,8,FF,00,FF,64,FF,AF,64,00,
3229009,000001B3,false,Rx,0,8,C4,12,00,0C,00,FF,FF,97,
3230100,000002A7,false,Rx,0,5,7A,FE,FE,FF,14,00,00,00,
3230100,0000008F,false,Rx,0,8,FF,FF,00,7D,F2,FF,FF,FF,
3234098,000001C0,false,Rx,0,8,B9,34,00,40,63,55,55,57,
3234099,00000199,false,Rx,0,6,6F,FD,EB,7E,00,20,00,00,
3234099,0000019A,false,Rx,0,6,9A,FD,45,7F,00,10,00,00,
3235646,00000314,false,Rx,0,5,50,80,1D,FF,FF,00,00,00,
3235646,00000349,false,Rx,0,5,FE,FF,FE,FF,FF,00,00,00,
3237213,00000510,false,Rx,0,8,40,10,00,02,03,92,01,00,
3237213,000000D9,false,Rx,0,8,76,FA,00,10,00,F0,7F,CF,
3238276,000000A5,false,Rx,0,8,41,05,FF,F7,FF,00,00,C1,
3238277,000000A7,false,Rx,0,7,79,F5,FF,F0,FF,FF,0F,00,
3238277,000000DC,false,Rx,0,6,E8,05,22,D0,07,EE,00,00,
3239436,00000173,false,Rx,0,8,25,FB,00,02,20,00,D2,1F,
3239436,000001A1,false,Rx,0,5,60,CE,00,00,81,00,00,00,
3243290,00000083,false,Rx,0,8,FF,7F,FF,7F,FF,7F,FF,7F,
3243290,00000254,false,Rx,0,8,FF,7F,FF,7F,FF,7F,FF,7F,
3244364,0000019F,false,Rx,0,6,5A,FE,05,80,00,10,00,00,
3244364,000001DB,false,Rx,0,8,64,00,0A,6E,C0,FF,00,FF,
3245824,000001E1,false,Rx,0,6,A8,F8,00,FF,FF,FF,00,00,
3245825,00000096,false,Rx,0,8,64,00,54,AA,01,FF,FF,FF,
3246820,000002BB,false,Rx,0,5,34,F6,3F,00,F2,00,00,00,
3247911,000000FA,false,Rx,0,8,02,C0,08,00,C8,07,D0,D7,
3247911,000000D9,false,Rx,0,8,2B,FB,00,10,00,F0,7F,CF,
3247912,000002AE,false,Rx,0,8,FF,00,FF,64,FF,AF,64,00,
3249019,00000201,false,Rx,0,8,B1,58,E3,67,00,FF,F0,FF,
3249019,000002C4,false,Rx,0,8,00,00,00,FF,FF,00,00,0F,
3249020,0000029D,false,Rx,0,8,FF,FF,FF,FF,0F,FF,FF,FF,
3251932,00000197,false,Rx,0,4,3D,0B,FE,FC,00,00,00,00,
3254408,00000199,false,Rx,0,6,7C,F0,E1,7E,00,20,00,00,
3254410,00000081,false,Rx,0,8,06,10,00,06,06,05,05,FF,
3254412,0000019A,false,Rx,0,6,E1,F0,40,7F,00,10,00,00,
3258072,000000D9,false,Rx,0,8,A5,FC,00,10,00,F0,7F,CF,
3258074,000000A5,false,Rx,0,8,A6,06,FF,F7,FF,00,00,C1,
3258075,00000095,false,Rx,0,8,64,68,96,00,00,F0,00,00,
3258076,000001CE,false,Rx,0,8,64,68,96,00,00,F0,00,00,
3258076,000000A7,false,Rx,0,7,B3,F6,FF,F0,FF,FF,0F,00,
3259121,000000DC,false,Rx,0,6,56,06,22,D0,07,EE,00,00,
3259122,000001CF,false,Rx,0,8,64,68,96,00,00,F0,00,00,
3259122,00000302,false,Rx,0,7,A2,F0,B6,6F,01,00,00,00,
3259123,000003A1,false,Rx,0,8,00,01,00,03,00,C0,00,F0,
3260263,000001A1,false,Rx,0,5,95,C0,00,00,81,00,00,00,
3263320,00000083,false,Rx,0,8,FF,7F,FF,7F,FF,7F,FF,7F,
3263321,00000254,false,Rx,0,8,FF,7F,FF,7F,FF,7F,FF,7F,
3264531,0000019F,false,Rx,0,6,4F,F1,03,80,00,10,00,00,
3264532,000002E0,false,Rx,0,6,9E,F6,75,40,24,FF,00,00,
3265988,00000065,false,Rx,0,8,5C,82,30,03,FF,FF,FF,FF,
3267772,000001AE,false,Rx,0,3,07,65,1A,00,00,00,00,00,
3267772,000000FA,false,Rx,0,8,03,10,08,02,38,59,28,CA,
3267773,000000D9,false,Rx,0,8,F8,FD,00,10,00,F0,7F,CF,
3267773,000001E4,false,Rx,0,8,0A,00,61,61,11,11,11,11,
3267773,00000145,false,Rx,0,3,C8,9F,F0,00,00,00,00,00,
3268901,000002AE,false,Rx,0,8,FF,00,FF,64,FF,AF,64,00,
3268902,000002EB,false,Rx,0,8,35,F4,11,11,11,62,11,FF,
3268902,00000284,false,Rx,0,8,C8,80,0C,FF,FF,FF,FF,0F,
3271592,0000008F,false,Rx,0,8,FF,FF,00,7D,F2,FF,FF,FF,
3271592,00000412,false,Rx,0,4,03,50,00,00,00,00,00,00,
3271593,00000414,false,Rx,0,4,03,54,00,00,00,00,00,00,
3274137,000001C0,false,Rx,0,8,E4,35,00,40,63,55,55,57,
3274137,00000376,false,Rx,0,3,1E,14,11,00,00,00,00,00,
3274138,00000199,false,Rx,0,6,A8,F2,E1,7E,00,20,00,00,
3274138,0000019A,false,Rx,0,6,35,F2,40,7F,00,10,00,00,
3275407,000000CA,false,Rx,0,8,89,24,00,00,00,00,FD,F7,
3275408,00000094,false,Rx,0,8,03,50,00,00,FF,FF,FF,FF,
3275408,00000096,false,Rx,0,8,64,00,54,AA,01,FF,FF,FF,
3275408,000002F4,false,Rx,0,2,00,00,00,00,00,00,00,00,
3278106,000000D9,false,Rx,0,8,1F,FE,00,10,00,F0,7F,CF,
3278106,000000A5,false,Rx,0,8,FB,07,FF,F7,FF,00,00,C1,
3278106,000000A7,false,Rx,0,7,F5,F7,FF,F0,FF,FF,0F,00,
3278107,000000DC,false,Rx,0,6,3C,07,22,D0,07,EE,00,00,
3279589,00000163,false,Rx,0,8,46,F2,04,25,13,15,02,F5,
3279590,000001A1,false,Rx,0,5,08,C1,00,00,81,00,00,00,
3282265,00000197,false,Rx,0,4,B7,0C,FE,FC,00,00,00,00,
3282266,00000296,false,Rx,0,5,98,E3,FE,FF,14,00,00,00,
3283600,00000083,false,Rx,0,8,FF,7F,FF,7F,FF,7F,FF,7F,
3283601,00000254,false,Rx,0,8,FF,7F,FF,7F,FF,7F,FF,7F,
3284597,0000019F,false,Rx,0,6,AE,F3,FD,7F,00,10,00,00,
3284598,0000036E,false,Rx,0,5,D5,FE,50,01,15,00,00,00,
3284598,000001DB,false,Rx,0,8,64,00,0A,6E,C0,FF,00,FF,
3285830,0000012F,false,Rx,0,8,5B,7C,FA,DD,FF,FF,FF,00,
3288091,000000D9,false,Rx,0,8,1E,F0,00,10,00,F0,7F,CF,
3288091,000002AE,false,Rx,0,8,FF,00,FF,64,FF,AF,64,00,
3289394,00000173,false,Rx,0,8,4D,F1,00,02,20,00,D2,1F,
3291997,000000AB,false,Rx,0,8,7F,F9,04,00,00,D0,FF,FF,
3291997,00000276,false,Rx,0,8,C0,00,00,00,00,C0,FF,FF,
3292971,000000FA,false,Rx,0,8,05,86,12,08,76,76,76,00,
3292972,00000287,false,Rx,0,8,C1,0C,FE,F0,3D,FF,30,FD,
3294405,00000199,false,Rx,0,6,C9,F4,E1,7E,00,20,00,00,
3294405,0000019A,false,Rx,0,6,EF,F4,4A,7F,00,10,00,00,
3295876,00000220,false,Rx,0,8,62,A0,E5,FF,FF,FF,FF,FF,
3298608,000000D9,false,Rx,0,8,43,F1,00,10,00,F0,7F,CF,
3298608,000000A5,false,Rx,0,8,A7,08,FF,F7,FF,00,00,C1,
3298609,000000A7,false,Rx,0,7,30,F8,FF,F0,FF,FF,0F,00,
3298609,000000DC,false,Rx,0,6,40,08,22,D0,07,EE,00,00,
3299214,000003FD,false,Rx,0,5,C5,00,20,FF,FF,00,00,00,
3299215,00000201,false,Rx,0,8,C7,58,F8,67,00,FF,F0,FF,
3299216,00000302,false,Rx,0,7,A7,F4,B6,6F,01,00,00,00,
3300601,000001A1,false,Rx,0,5,B2,C2,00,00,81,00,00,00,
3303372,00000083,false,Rx,0,8,FF,7F,FF,7F,FF,7F,FF,7F,
3303373,00000254,false,Rx,0,8,FF,7F,FF,7F,FF,7F,FF,7F,
3304724,0000019F,false,Rx,0,6,FA,F5,03,80,00,10,00,00,
3305859,0000003C,false,Rx,0,8,19,A7,03,92,01,00,2A,FF,
3305860,00000096,false,Rx,0,8,64,00,54,AA,01,FF,FF,FF,
3307920,0000031C,false,Rx,0,8,FF,3F,FF,FF,09,00,40,FD,
3307921,000000FA,false,Rx,0,8,05,FD,FD,FD,FD,FD,FD,E9,
3307922,000000D9,false,Rx,0,8,A4,F2,00,10,00,F0,7F,CF,
3307922,0000030C,false,Rx,0,5,09,F5,FE,FF,14,00,00,00,
3307923,000002AE,false,Rx,0,8,FF,00,FF,64,FF,AF,64,00,
3309447,00000265,false,Rx,0,8,F7,66,88,13,70,30,FF,FF,
3309448,000002A7,false,Rx,0,5,8F,F0,FE,FF,14,00,00,00,
3309449,000001C3,false,Rx,0,8,4B,48,00,00,00,00,00,00,
3310673,000001DD,false,Rx,0,8,00,00,00,F0,FF,FF,FF,FF,
3310675,0000008F,false,Rx,0,8,FF,FF,00,7D,F2,FF,FF,FF,
3311974,00000197,false,Rx,0,4,38,0D,FE,FC,00,00,00,00,
3311975,0000021D,false,Rx,0,8,00,00,00,FF,FF,FF,FF,FF,
3313119,00000203,false,Rx,0,8,FF,88,00,FF,FF,FF,00,C0,
3314140,000001C0,false,Rx,0,8,03,36,00,40,63,55,55,57,
3314142,00000199,false,Rx,0,6,1D,F6,E1,7E,00,20,00,00,
3314142,0000019A,false,Rx,0,6,81,F6,49,7F,00,10,00,00,
3316362,000002EB,false,Rx,0,8,68,F5,11,11,11,62,11,FF,
3316363,000001E4,false,Rx,0,8,57,01,61,61,11,11,11,11,
3318611,000000D9,false,Rx,0,8,F9,F3,00,10,00,F0,7F,CF,
3318613,000000A5,false,Rx,0,8,FA,09,FF,F7,FF,00,00,C1,
3318614,00000095,false,Rx,0,8,64,68,96,00,00,F0,00,00,
3318615,000001CE,false,Rx,0,8,64,68,96,00,00,F0,00,00,
3318616,000000A7,false,Rx,0,7,76,F9,FF,F0,FF,FF,0F,00,
3319439,000000DC,false,Rx,0,6,2A,09,22,D0,07,EE,00,00,
3319441,000001CF,false,Rx,0,8,64,68,96,00,00,F0,00,00,
3319442,0000032B,false,Rx,0,8,B5,00,B4,37,FF,FF,FF,FF,
3320671,000001A1,false,Rx,0,5,2F,C3,00,00,81,00,00,00,
3320673,000003AF,false,Rx,0,8,50,FD,26,FF,FF,FF,FF,FF,
3321457,00000384,false,Rx,0,8,FF,FF,F7,FF,FF,FF,FF,FF,
3323518,00000083,false,Rx,0,8,FF,7F,FF,7F,FF,7F,FF,7F,
3323520,00000254,false,Rx,0,8,FF,7F,FF,7F,FF,7F,FF,7F,
3323521,000001BB,false,Rx,0,8,FF,FF,00,FF,FF,FF,FF,FF,
3324632,0000019F,false,Rx,0,6,C9,F7,F1,7F,00,10,00,00,
3324634,000001DB,false,Rx,0,8,64,00,0A,6E,C0,FF,00,FF,
3328389,000000D9,false,Rx,0,8,77,F4,00,10,00,F0,7F,CF,
3328392,000000FA,false,Rx,0,8,00,04,00,E0,7F,01,0A,C4,
3328393,000002AE,false,Rx,0,8,FF,00,FF,64,FF,AF,64,00,
3329635,000001B3,false,Rx,0,8,C4,12,00,0D,00,FF,FF,98,
3334656,00000199,false,Rx,0,6,0B,F8,E1,7E,00,20,00,00,
3334659,0000019A,false,Rx,0,6,45,F8,45,7F,00,10,00,00,
3335931,00000096,false,Rx,0,8,64,00,54,AA,01,FF,FF,FF,
3337318,00000510,false,Rx,0,8,40,10,00,02,03,92,01,00,
3337321,000000D9,false,Rx,0,8,2A,F5,00,10,00,F0,7F,CF,
3338405,000000A5,false,Rx,0,8,1D,0A,FF,F7,FF,00,00,C1,
3338408,000000A7,false,Rx,0,7,BC,FA,FF,F0,FF,FF,0F,00,
3338410,000000DC,false,Rx,0,6,94,0A,22,D0,07,EE,00,00,
3339675,00000173,false,Rx,0,8,C3,F6,00,02,20,00,D2,1F,
3339677,00000302,false,Rx,0,7,A8,F8,B6,6F,01,00,00,00,
3339679,000001A1,false,Rx,0,5,DB,C4,00,00,81,00,00,00,
3342140,00000197,false,Rx,0,4,B4,0E,FE,FC,00,00,00,00,
3343380,00000083,false,Rx,0,8,FF,7F,FF,7F,FF,7F,FF,7F,
3343382,00000254,false,Rx,0,8,FF,7F,FF,7F,FF,7F,FF,7F,
3344637,0000019F,false,Rx,0,6,38,F9,03,80,00,10,00,00,
3345748,000002A5,false,Rx,0,2,FE,FE,00,00,00,00,00,00,
3346968,000002BB,false,Rx,0,5,A9,F7,3F,00,F2,00,00,00,
3348310,000000D9,false,Rx,0,8,CD,F6,00,10,00,F0,7F,CF,
3348313,000000FA,false,Rx,0,8,02,C0,08,00,C8,07,D0,D7,
3348315,000002AE,false,Rx,0,8,FF,00,FF,64,FF,AF,64,00,
3349596,00000201,false,Rx,0,8,DC,58,0E,68,00,FF,F0,FF,
3349599,000002C4,false,Rx,0,8,00,00,00,FF,FF,00,00,0F,
3349601,0000029D,false,Rx,0,8,FF,FF,FF,FF,0F,FF,FF,FF,
3351646,0000008F,false,Rx,0,8,FF,FF,00,7D,F2,FF,FF,FF,
3354570,000001C0,false,Rx,0,8,5E,37,00,40,63,55,55,57,
3354573,00000199,false,Rx,0,6,DF,FA,E1,7E,00,20,00,00,
3354574,0000019A,false,Rx,0,6,F9,FA,4A,7F,00,10,00,00,
3355778,000000CA,false,Rx,0,8,D4,25,00,00,00,00,FD,F7,
3358344,000000D9,false,Rx,0,8,90,F7,00,10,00,F0,7F,CF,
3358347,000000A5,false,Rx,0,8,40,0B,FF,F7,FF,00,00,C1,
3358349,000000A7,false,Rx,0,7,FA,FB,FF,F0,FF,FF,0F,00,
3358350,000000DC,false,Rx,0,6,FE,0B,22,D0,07,EE,00,00,
3360857,000001A1,false,Rx,0,5,46,C5,00,00,81,00,00,00,
3363421,00000083,false,Rx,0,8,FF,7F,FF,7F,FF,7F,FF,7F,
3363424,00000254,false,Rx,0,8,FF,7F,FF,7F,FF,7F,FF,7F,
3364685,0000019F,false,Rx,0,6,D9,FB,FD,7F,00,10,00,00,
3364688,0000036F,false,Rx,0,5,06,F0,FE,FF,14,00,00,00,
3364690,000001DB,false,Rx,0,8,64,00,0A,6E,C0,FF,00,FF,
3364692,000002E0,false,Rx,0,6,F4,F7,75,40,24,FF,00,00,
3365968,00000065,false,Rx,0,8,01,83,30,03,FF,FF,FF,FF,
3365971,00000096,false,Rx,0,8,64,00,54,AA,01,FF,FF,FF,
3368422,000000FA,false,Rx,0,8,03,10,08,02,38,59,28,CA,
3368425,000000D9,false,Rx,0,8,CC,F8,00,10,00,F0,7F,CF,
3368427,000002AE,false,Rx,0,8,FF,00,FF,64,FF,AF,64,00,
3368428,0000019D,false,Rx,0,8,0A,3E,92,02,FF,FF,FF,FF,
3369710,00000284,false,Rx,0,8,C8,80,0C,FF,FF,FF,FF,0F,
3369713,000001AE,false,Rx,0,3,07,65,1A,00,00,00,00,00,
3369715,000001E4,false,Rx,0,8,B0,02,61,61,11,11,11,11,
3370645,000002EB,false,Rx,0,8,8F,F6,11,11,11,62,11,FF,
3372056,00000197,false,Rx,0,4,BD,00,FE,FC,00,00,00,00,
3372059,000000C0,false,Rx,0,2,F3,40,00,00,00,00,00,00,
3374646,00000376,false,Rx,0,3,52,15,11,00,00,00,00,00,
3374649,00000199,false,Rx,0,6,BE,FC,E1,7E,00,20,00,00,
3374651,0000019A,false,Rx,0,6,98,FC,4A,7F,00,10,00,00,
3378307,000000D9,false,Rx,0,8,91,F9,00,10,00,F0,7F,CF,
3378309,000000A5,false,Rx,0,8,CE,0C,FF,F7,FF,00,00,C1,
3378311,00000095,false,Rx,0,8,64,68,96,00,00,F0,00,00,
3378313,000000A7,false,Rx,0,7,35,FC,FF,F0,FF,FF,0F,00,
3378314,000000DC,false,Rx,0,6,F5,0C,22,D0,07,EE,00,00,
3379525,000001CE,false,Rx,0,8,64,68,96,00,00,F0,00,00,
3379527,000001CF,false,Rx,0,8,64,68,96,00,00,F0,00,00,
3379529,00000163,false,Rx,0,8,F2,FC,04,25,13,15,04,F5,
3379531,00000302,false,Rx,0,7,AD,FC,B6,6F,01,00,00,00,
3380694,000001A1,false,Rx,0,5,FC,C6,00,00,81,00,00,00,
3383375,00000083,false,Rx,0,8,FF,7F,FF,7F,FF,7F,FF,7F,
3383377,00000254,false,Rx,0,8,FF,7F,FF,7F,FF,7F,FF,7F,
3384645,0000019F,false,Rx,0,6,D1,FD,FB,7F,00,10,00,00,
3384647,00000301,false,Rx,0,7,84,CD,04,72,FF,FF,2F,00,
3385881,0000012F,false,Rx,0,8,06,7D,FA,DD,FF,FF,FF,00,
3387906,000000FA,false,Rx,0,8,05,86,12,08,76,76,76,00,
3387908,000000D9,false,Rx,0,8,76,FA,00,10,00,F0,7F,CF,
3387910,000002AE,false,Rx,0,8,FF,00,FF,64,FF,AF,64,00,
3389609,000003E9,false,Rx,0,8,FF,FF,0F,FF,FF,FF,FF,FF,
3389612,00000173,false,Rx,0,8,25,FB,00,02,20,00,D2,1F,
3390205,000002A7,false,Rx,0,5,12,F1,FE,FF,14,00,00,00,
3391655,0000008F,false,Rx,0,8,FF,FF,00,7D,F2,FF,FF,FF,
3393398,00000200,false,Rx,0,8,01,00,74,FF,FF,00,FF,C0,
3393401,000001C0,false,Rx,0,8,02,38,00,40,63,55,55,57,
3394639,00000199,false,Rx,0,6,6A,FE,E1,7E,00,20,00,00,
3394642,0000019A,false,Rx,0,6,24,FE,45,7F,00,10,00,00,
3395686,00000314,false,Rx,0,5,50,80,1D,FF,FF,00,00,00,
3395689,00000096,false,Rx,0,8,64,00,54,AA,01,FF,FF,FF,
3397698,0000037F,false,Rx,0,2,FF,F0,00,00,00,00,00,00,
3397701,00000297,false,Rx,0,7,F5,F5,F0,E0,F0,F0,A8,00,
3397703,000000D9,false,Rx,0,8,2B,FB,00,10,00,F0,7F,CF,
3397704,000000A5,false,Rx,0,8,93,0D,FF,F7,FF,00,00,C1,
3398961,000000A7,false,Rx,0,7,73,FD,FF,F0,FF,FF,0F,00,
3398964,000000DC,false,Rx,0,6,9F,0D,22,D0,07,EE,00,00,
3398966,000003FD,false,Rx,0,5,58,01,20,FF,FF,00,00,00,
3398967,00000201,false,Rx,0,8,F2,58,23,68,00,FF,F0,FF,
3398969,000003B4,false,Rx,0,8,FF,FF,FC,FF,F8,F8,00,FF,
3400652,000001A1,false,Rx,0,5,61,C7,00,00,81,00,00,00,
3402046,00000197,false,Rx,0,4,32,01,FE,FC,00,00,00,00,
3403389,00000083,false,Rx,0,8,FF,7F,FF,7F,FF,7F,FF,7F,
3403392,00000254,false,Rx,0,8,FF,7F,FF,7F,FF,7F,FF,7F,
3404645,0000019F,false,Rx,0,6,6B,F0,07,80,00,10,00,00,
3404647,000001DB,false,Rx,0,8,64,00,0A,6E,C0,FF,00,FF,
3405864,0000003C,false,Rx,0,8,45,A8,03,92,01,00,2A,FF,
3408335,000000FA,false,Rx,0,8,05,FD,FD,FD,FD,FD,FD,E9,
3408338,000000D9,false,Rx,0,8,A5,FC,00,10,00,F0,7F,CF,
3408339,000002AE,false,Rx,0,8,FF,00,FF,64,FF,AF,64,00,
3409590,000001C8,false,Rx,0,8,00,00,00,00,F0,31,FF,FF,
3409592,00000265,false,Rx,0,8,F7,66,88,13,70,30,FF,FF,
3409594,00000340,false,Rx,0,2,F3,FF,00,00,00,00,00,00,
3409596,0000042B,false,Rx,0,4,95,1F,72,30,00,00,00,00,
3414561,00000199,false,Rx,0,6,16,F1,E1,7E,00,20,00,00,
3414563,0000019A,false,Rx,0,6,C5,F1,44,7F,00,10,00,00,
3416639,000002EB,false,Rx,0,8,D2,F7,11,11,11,62,11,FF,
3416642,000001E4,false,Rx,0,8,ED,03,61,61,11,11,11,11,
3418275,000000D9,false,Rx,0,8,F8,FD,00,10,00,F0,7F,CF,
3418278,000000A5,false,Rx,0,8,74,0E,FF,F7,FF,00,00,C1,
3418279,000000A7,false,Rx,0,7,B9,FE,FF,F0,FF,FF,0F,00,
3418281,000000DC,false,Rx,0,6,21,0E,22,D0,07,EE,00,00,
3419482,00000302,false,Rx,0,7,E4,F1,B6,6F,01,00,00,00,
3419484,0000032B,false,Rx,0,8,B5,00,B5,37,FF,FF,FF,FF,
3419486,000001A1,false,Rx,0,5,09,C8,00,00,81,00,00,00,
3423340,00000083,false,Rx,0,8,FF,7F,FF,7F,FF,7F,FF,7F,
3423343,00000254,false,Rx,0,8,FF,7F,FF,7F,FF,7F,FF,7F,
3424433,0000019F,false,Rx,0,6,F1,F2,03,80,00,10,00,00,
3425922,00000096,false,Rx,0,8,64,00,54,AA,01,FF,FF,FF,
3428080,000000FA,false,Rx,0,8,00,14,00,E0,7F,01,0A,C4,
3428083,000000D9,false,Rx,0,8,1F,FE,00,10,00,F0,7F,CF,
3428084,000002AE,false,Rx,0,8,FF,00,FF,64,FF,AF,64,00,
3429332,000001B3,false,Rx,0,8,C4,12,00,0E,00,FF,FF,99,
3430624,0000008F,false,Rx,0,8,FF,FF,00,7D,F2,FF,FF,FF,
3432000,00000197,false,Rx,0,4,BE,02,FE,FC,00,00,00,00,
3434246,000001C0,false,Rx,0,8,5F,39,00,40,63,55,55,57,
3434248,00000199,false,Rx,0,6,C4,F3,D7,7E,00,20,00,00,
3434250,0000019A,false,Rx,0,6,5F,F3,40,7F,00,10,00,00,
3435807,000000CA,false,Rx,0,8,33,26,00,00,00,00,FD,F7,
3435809,00000349,false,Rx,0,5,FE,FF,FE,FF,FF,00,00,00,
3437656,00000510,false,Rx,0,8,40,10,00,02,03,92,01,00,
3437658,000000D9,false,Rx,0,8,1E,F0,00,10,00,F0,7F,CF,
3437660,000000A5,false,Rx,0,8,75,00,FF,F7,FF,00,00,C1,
3438653,00000095,false,Rx,0,8,64,68,96,00,00,F0,00,00,
3438655,000001CE,false,Rx,0,8,64,68,96,00,00,F0,00,00,
3438657,000000A7,false,Rx,0,7,3A,F0,FF,F0,FF,FF,0F,00,
3438659,000000DC,false,Rx,0,6,37,00,22,D0,07,EE,00,00,
3438660,000001CF,false,Rx,0,8,64,68,96,00,00,F0,00,00,
3439671,00000173,false,Rx,0,8,4D,F1,00,02,20,00,D2,1F,
3439674,000001A1,false,Rx,0,5,94,C9,00,00,81,00,00,00,
3443655,00000083,false,Rx,0,8,FF,7F,FF,7F,FF,7F,FF,7F,
3443658,00000254,false,Rx,0,8,FF,7F,FF,7F,FF,7F,FF,7F,
3443659,00000416,false,Rx,0,8,9A,00,00,80,11,02,62,F2,
3444640,0000019F,false,Rx,0,6,90,F4,03,80,00,10,00,00,
3444642,0000036E,false,Rx,0,5,C9,F0,FE,FF,14,00,00,00,
3444644,000001DB,false,Rx,0,8,64,00,0A,6E,C0,FF,00,FF,
3445976,000001E1,false,Rx,0,6,C2,F9,00,FF,FF,FF,00,00,
3445979,000002BB,false,Rx,0,5,C1,F8,3F,00,F2,00,00,00,
3447989,000000FA,false,Rx,0,8,02,C0,08,00,C8,07,D0,D7,
3447991,000000D9,false,Rx,0,8,43,F1,00,10,00,F0,7F,CF,
3447993,000002AE,false,Rx,0,8,FF,00,FF,64,FF,AF,64,00,
3449114,00000201,false,Rx,0,8,07,59,39,68,00,FF,F0,FF,
3449116,000002C4,false,Rx,0,8,00,00,00,FF,FF,00,00,0F,
3449118,0000029D,false,Rx,0,8,FF,FF,FF,FF,0F,FF,FF,FF,
3454497,00000199,false,Rx,0,6,A3,F5,E1,7E,00,20,00,00,
3454499,0000019A,false,Rx,0,6,56,F5,4F,7F,00,10,00,00,
3456034,00000096,false,Rx,0,8,64,00,54,AA,01,FF,FF,FF,
3458138,000000D9,false,Rx,0,8,A4,F2,00,10,00,F0,7F,CF,
3458141,000000A5,false,Rx,0,8,28,01,FF,F7,FF,00,00,C1,
3458143,000000A7,false,Rx,0,7,7C,F1,FF,F0,FF,FF,0F,00,
3458145,000000DC,false,Rx,0,6,5D,01,22,D0,07,EE,00,00,
3459466,000003A1,false,Rx,0,8,00,01,00,03,00,C0,00,F0,
3459469,00000302,false,Rx,0,7,E1,F5,B6,6F,01,00,00,00,
3459471,000001A1,false,Rx,0,5,2E,CA,00,00,81,00,00,00,
3460842,0000026B,false,Rx,0,8,04,19,FD,FF,FF,FF,FF,FF,
3462648,00000197,false,Rx,0,4,31,03,FE,FC,00,00,00,00,
3463646,00000083,false,Rx,0,8,FF,7F,FF,7F,FF,7F,FF,7F,
3463649,00000254,false,Rx,0,8,FF,7F,FF,7F,FF,7F,FF,7F,
3464650,0000019F,false,Rx,0,6,71,F6,FD,7F,00,10,00,00,
3464653,000002E0,false,Rx,0,6,88,F8,75,40,24,FF,00,00,
3465979,00000065,false,Rx,0,8,8F,84,30,03,FF,FF,FF,FF,
3467833,0000030C,false,Rx,0,5,B3,F6,FE,FF,14,00,00,00,
3467835,000000FA,false,Rx,0,8,03,10,08,02,38,59,28,CA,
3467838,000000D9,false,Rx,0,8,F9,F3,00,10,00,F0,7F,CF,
3467840,000001AE,false,Rx,0,3,07,65,1A,00,00,00,00,00,
3467841,000002AE,false,Rx,0,8,FF,00,FF,64,FF,AF,64,00,
3468854,00000145,false,Rx,0,3,C8,9F,F0,00,00,00,00,00,
3468856,000001E4,false,Rx,0,8,63,04,61,61,11,11,11,11,
3468858,00000284,false,Rx,0,8,C8,80,0C,FF,FF,FF,FF,0F,
3468860,000002EB,false,Rx,0,8,8E,F8,11,11,11,62,11,FF,
3470163,000002A7,false,Rx,0,5,A8,F2,FE,FF,14,00,00,00,
3470165,000003D8,false,Rx,0,8,CF,C9,FF,FF,FF,FF,FF,FF,
3470167,0000026C,false,Rx,0,8,F7,8D,F1,FF,FF,FF,FF,FF,
3471657,0000008F,false,Rx,0,8,FF,FF,00,7D,F2,FF,FF,FF,
3474183,000001C0,false,Rx,0,8,B8,3A,00,40,63,55,55,57,
3474186,000002F7,false,Rx,0,6,02,9B,8A,09,11,F2,00,00,
3474187,00000199,false,Rx,0,6,77,F7,E1,7E,00,20,00,00,
3474190,0000019A,false,Rx,0,6,EA,F7,40,7F,00,10,00,00,
3474192,00000376,false,Rx,0,3,86,16,11,00,00,00,00,00,
3475888,00000346,false,Rx,0,4,D3,52,21,FF,00,00,00,00,
3478069,000000D9,false,Rx,0,8,77,F4,00,10,00,F0,7F,CF,
3478072,000000A5,false,Rx,0,8,CF,02,FF,F7,FF,00,00,C1,
3478073,000000A7,false,Rx,0,7,B6,F2,FF,F0,FF,FF,0F,00,
3478075,000000DC,false,Rx,0,6,E3,02,22,D0,07,EE,00,00,
3479452,00000163,false,Rx,0,8,C7,F7,04,25,13,15,04,F5,
3479455,000001A1,false,Rx,0,5,B3,CB,00,00,81,00,00,00,
3483345,00000083,false,Rx,0,8,FF,7F,FF,7F,FF,7F,FF,7F,
3483348,00000254,false,Rx,0,8,FF,7F,FF,7F,FF,7F,FF,7F,
3484437,0000019F,false,Rx,0,6,1C,F8,07,80,00,10,00,00,
3484439,000001DB,false,Rx,0,8,64,00,0A,6E,C0,FF,00,FF,
3485941,0000012F,false,Rx,0,8,E1,7E,FA,DD,FF,FF,FF,00,
3485944,00000096,false,Rx,0,8,64,00,54,AA,01,FF,FF,FF,
3488023,000000FA,false,Rx,0,8,05,86,12,08,76,76,76,00,
3488025,000000D9,false,Rx,0,8,2A,F5,00,10,00,F0,7F,CF,
3488027,000002AE,false,Rx,0,8,FF,00,FF,64,FF,AF,64,00,
3489446,00000173,false,Rx,0,8,C3,F6,00,02,20,00,D2,1F,
3491957,000000AB,false,Rx,0,8,98,FA,04,00,00,D0,FF,FF,
3491961,00000197,false,Rx,0,4,BB,04,FE,FC,00,00,00,00,
3491963,00000276,false,Rx,0,8,C0,00,00,00,00,C0,FF,FF,
3494434,00000199,false,Rx,0,6,67,F9,D7,7E,00,20,00,00,
3494436,0000019A,false,Rx,0,6,47,F9,4A,7F,00,10,00,00,
3495666,000001EE,false,Rx,0,2,00,FC,00,00,00,00,00,00,
3498102,000000D9,false,Rx,0,8,CD,F6,00,10,00,F0,7F,CF,
3498105,000000A5,false,Rx,0,8,92,03,FF,F7,FF,00,00,C1,
3498106,00000095,false,Rx,0,8,64,68,96,00,00,F0,00,00,
3498108,000001CE,false,Rx,0,8,64,68,96,00,00,F0,00,00,
3498110,000000A7,false,Rx,0,7,F0,F3,FF,F0,FF,FF,0F,00,
3499227,000000DC,false,Rx,0,6,89,03,22,D0,07,EE,00,00,
3499229,000001CF,false,Rx,0,8,64,68,96,00,00,F0,00,00,
3499231,00000201,false,Rx,0,8,1D,59,4E,68,00,FF,F0,FF,
3499233,00000302,false,Rx,0,7,EE,F9,B6,6F,01,00,00,00,
3499235,000003FD,false,Rx,0,5,E2,02,20,FF,FF,00,00,00,
3500352,000001A1,false,Rx,0,5,47,CC,00,00,81,00,00,00,
3503378,00000083,false,Rx,0,8,FF,7F,FF,7F,FF,7F,FF,7F,
3503381,00000254,false,Rx,0,8,FF,7F,FF,7F,FF,7F,FF,7F,
3504439,0000019F,false,Rx,0,6,94,FA,FF,7F,00,10,00,00,
3505888,0000003C,false,Rx,0,8,18,A9,03,92,01,00,2A,FF,
3507959,0000031C,false,Rx,0,8,FF,3F,FF,FF,09,00,40,FD,
3507961,000000D9,false,Rx,0,8,90,F7,00,10,00,F0,7F,CF,
3507963,000000FA,false,Rx,0,8,05,FD,FD,FD,FD,FD,FD,E9,
3507965,000002AE,false,Rx,0,8,FF,00,FF,64,FF,AF,64,00,
3509072,00000265,false,Rx,0,8,F6,66,88,13,70,30,FF,FF,
3510322,000001DD,false,Rx,0,8,00,00,00,F0,FF,FF,FF,FF,
3510325,000001C3,false,Rx,0,8,16,49,00,00,00,00,00,00,
3511395,0000008F,false,Rx,0,8,FF,FF,00,7D,F2,FF,FF,FF,
3512886,0000021D,false,Rx,0,8,00,00,00,FF,FF,FF,FF,FF,
3512888,00000203,false,Rx,0,8,A2,89,00,FF,FF,FF,00,C0,
3514172,000001C0,false,Rx,0,8,E5,3B,00,40,63,55,55,57,
3514174,00000199,false,Rx,0,6,B5,FB,E1,7E,00,20,00,00,
3514176,0000019A,false,Rx,0,6,F5,FB,3B,7F,00,10,00,00,
3515820,000000CA,false,Rx,0,8,6E,27,00,00,00,00,FD,F7,
3515823,00000096,false,Rx,0,8,64,00,54,AA,01,FF,FF,FF,
3516882,000001E4,false,Rx,0,8,3E,05,61,61,11,11,11,11,
3516884,000002EB,false,Rx,0,8,D3,F9,11,11,11,62,11,FF,
3518144,000000D9,false,Rx,0,8,CC,F8,00,10,00,F0,7F,CF,
3518147,000000A5,false,Rx,0,8,1C,04,FF,F7,FF,00,00,C1,
3518149,000000A7,false,Rx,0,7,3F,F4,FF,F0,FF,FF,0F,00,
3518151,000000DC,false,Rx,0,6,82,04,22,D0,07,EE,00,00,
3519350,0000032B,false,Rx,0,8,B5,00,B6,37,FF,FF,FF,FF,
3519352,000001A1,false,Rx,0,5,DA,CD,00,00,81,00,00,00,
3521989,00000197,false,Rx,0,4,34,05,FE,FC,00,00,00,00,
3521991,00000293,false,Rx,0,5,E3,A3,FE,FF,14,00,00,00,
3523356,00000083,false,Rx,0,8,FF,7F,FF,7F,FF,7F,FF,7F,
3523359,00000254,false,Rx,0,8,FF,7F,FF,7F,FF,7F,FF,7F,
3523360,000001BB,false,Rx,0,8,FF,FF,00,FF,FF,FF,FF,FF,
3524428,0000019F,false,Rx,0,6,BB,FC,FB,7F,00,10,00,00,
3524431,0000036F,false,Rx,0,5,9B,F1,FE,FF,14,00,00,00,
3524432,000001DB,false,Rx,0,8,64,00,0A,6E,C0,FF,00,FF,
3526344,0000043D,false,Rx,0,8,0A,D4,CF,68,51,1B,80,61,
3528055,000000FA,false,Rx,0,8,00,24,00,E0,7F,01,0A,C4,
3528057,000000D9,false,Rx,0,8,91,F9,00,10,00,F0,7F,CF,
3529071,000002AE,false,Rx,0,8,FF,00,FF,64,FF,AF,64,00,
3529074,000001B3,false,Rx,0,8,C4,12,00,00,00,FF,FF,8B,
3533864,0000028E,false,Rx,0,5,3D,D3,FE,FF,14,00,00,00,
3533866,00000362,false,Rx,0,7,FD,4F,38,FD,4F,38,EA,00,
3533868,00000199,false,Rx,0,6,D4,FD,E1,7E,00,20,00,00,
3533870,0000019A,false,Rx,0,6,9A,FD,45,7F,00,10,00,00,
3537306,00000510,false,Rx,0,8,40,10,00,02,03,92,01,00,
3537309,00000294,false,Rx,0,5,A1,CB,FE,FF,14,00,00,00,
3537310,000000D9,false,Rx,0,8,76,FA,00,10,00,F0,7F,CF,
3538350,000000A5,false,Rx,0,8,41,05,FF,F7,FF,00,00,C1,
3538353,000000A7,false,Rx,0,7,79,F5,FF,F0,FF,FF,0F,00,
3538355,000000DC,false,Rx,0,6,E8,05,22,D0,07,EE,00,00,
3539477,00000173,false,Rx,0,8,25,FB,00,02,20,00,D2,1F,
3539480,00000302,false,Rx,0,7,EB,FD,B6,6F,01,00,00,00,
3539481,000001A1,false,Rx,0,5,60,CE,00,00,81,00,00,00,
3543295,00000083,false,Rx,0,8,FF,7F,FF,7F,FF,7F,FF,7F,
3543297,00000254,false,Rx,0,8,FF,7F,FF,7F,FF,7F,FF,7F,
3544378,0000019F,false,Rx,0,6,06,FE,FD,7F,00,10,00,00,
3545812,000002A5,false,Rx,0,2,FE,FE,00,00,00,00,00,00,
3545816,00000096,false,Rx,0,8,64,00,54,AA,01,FF,FF,FF,
3546863,000002BB,false,Rx,0,5,5C,F9,3F,00,F2,00,00,00,
3547953,000000FA,false,Rx,0,8,02,C0,08,00,C8,07,D0,D7,
3547957,000000D9,false,Rx,0,8,2B,FB,00,10,00,F0,7F,CF,
3547960,000002AE,false,Rx,0,8,FF,00,FF,64,FF,AF,64,00,
3549093,00000201,false,Rx,0,8,32,59,64,68,00,FF,F0,FF,
3549097,000002C4,false,Rx,0,8,00,00,00,FF,FF,00,00,0F,
