Time Stamp,ID,Extended,Dir,Bus,LEN,D1,D2,D3,D4,D5,D6,D7,D8
61557664,000001C0,false,Rx,0,8,5E,37,00,40,63,55,55,57,
61557667,000000D9,false,Rx,0,8,90,F7,00,10,00,F0,7F,CF,
61557670,000000A5,false,Rx,0,8,40,0B,FF,F7,FF,00,00,C1,
61558810,000000A7,false,Rx,0,7,FA,FB,FF,F0,FF,FF,0F,00,
61558814,000000DC,false,Rx,0,6,FE,0B,22,D0,07,EE,00,00,
61561451,000001A1,false,Rx,0,5,46,C5,00,00,81,00,00,00,
61563705,00000083,false,Rx,0,8,FF,7F,FF,7F,FF,7F,FF,7F,
61563709,00000254,false,Rx,0,8,FF,7F,FF,7F,FF,7F,FF,7F,
61563712,0000019F,false,Rx,0,6,EC,FB,03,80,00,10,00,00,
61566183,000001DB,false,Rx,0,8,8C,00,0A,6E,50,08,1A,FF,
61566187,000002E0,false,Rx,0,6,4A,F4,75,40,24,FF,00,00,
61566189,00000065,false,Rx,0,8,87,81,00,03,FF,FF,FF,FF,
61566192,00000096,false,Rx,0,8,64,00,54,AA,01,FF,FF,FF,
61567286,000002EB,false,Rx,0,8,5C,F0,11,11,11,62,11,FF,
61568386,000000D9,false,Rx,0,8,CC,F8,00,10,00,F0,7F,CF,
61568389,000000FA,false,Rx,0,8,03,10,08,02,38,59,28,CA,
61568392,000002AE,false,Rx,0,8,FF,00,FF,64,FF,AF,64,00,
61569490,000001AE,false,Rx,0,3,07,65,1A,00,00,00,00,00,
61569493,00000284,false,Rx,0,8,C8,80,0C,FF,FF,FF,FF,0F,
61569496,000001E4,false,Rx,0,8,3F,0B,61,61,11,11,11,11,
61571905,00000197,false,Rx,0,4,34,05,FE,FC,00,00,00,00,
61571907,0000019D,false,Rx,0,8,0A,3E,92,02,FF,FF,FF,FF,
61574618,00000199,false,Rx,0,6,BE,FC,E1,7E,00,20,00,00,
61574620,0000019A,false,Rx,0,6,98,FC,4A,7F,00,10,00,00,
61577557,00000376,false,Rx,0,3,AB,12,11,00,00,00,00,00,
61577559,000000D9,false,Rx,0,8,91,F9,00,10,00,F0,7F,CF,
61578583,000000A5,false,Rx,0,8,CE,0C,FF,F7,FF,00,00,C1,
61578585,000000A7,false,Rx,0,7,35,FC,FF,F0,FF,FF,0F,00,
61578586,00000095,false,Rx,0,8,64,68,96,00,00,F0,00,00,
61578588,000000DC,false,Rx,0,6,F5,0C,22,D0,07,EE,00,00,
61578589,000001CE,false,Rx,0,8,64,68,96,00,00,F0,00,00,
61579722,000001CF,false,Rx,0,8,64,68,96,00,00,F0,00,00,
61579723,00000163,false,Rx,0,8,F2,FC,04,25,13,15,04,F5,
61579725,00000302,false,Rx,0,7,AD,FC,B6,6F,01,00,00,00,
61581459,000001A1,false,Rx,0,5,FC,C6,00,00,81,00,00,00,
61581460,0000024A,false,Rx,0,8,02,01,00,00,00,00,F4,FF,
61583567,00000083,false,Rx,0,8,FF,7F,FF,7F,FF,7F,FF,7F,
61583568,00000254,false,Rx,0,8,FF,7F,FF,7F,FF,7F,FF,7F,
61584634,0000019F,false,Rx,0,6,78,FD,0D,80,00,10,00,00,
61584635,00000301,false,Rx,0,7,84,CD,04,72,FF,FF,2F,00,
61586270,0000012F,false,Rx,0,8,88,7A,FA,DD,FF,FF,FF,00,
61587565,00000373,false,Rx,0,6,00,B0,09,FF,FF,FF,00,00,
61587566,000000D9,false,Rx,0,8,76,FA,00,10,00,F0,7F,CF,
61588794,000000FA,false,Rx,0,8,05,86,12,08,76,76,76,00,
61588795,000002AE,false,Rx,0,8,FF,00,FF,64,FF,AF,64,00,
61588796,000003E9,false,Rx,0,8,FF,FF,0F,FF,FF,FF,FF,FF,
61588797,00000510,false,Rx,0,8,40,10,00,02,02,92,01,00,
61588798,00000173,false,Rx,0,8,50,FB,00,02,20,00,D2,98,
61590391,00000200,false,Rx,0,8,02,00,34,FF,FF,00,FF,C0,
61591685,0000008F,false,Rx,0,8,FF,FF,00,7D,F2,FF,FF,FF,
61594625,00000199,false,Rx,0,6,6A,FE,E1,7E,00,20,00,00,
61594626,0000019A,false,Rx,0,6,F7,FE,40,7F,00,10,00,00,
61596316,000000CA,false,Rx,0,8,06,2D,00,00,00,00,FD,F7,
61596317,00000096,false,Rx,0,8,64,00,54,AA,01,FF,FF,FF,
61596318,0000037F,false,Rx,0,2,FF,F0,00,00,00,00,00,00,
61597671,000001C0,false,Rx,0,8,02,38,00,40,63,55,55,57,
61597673,000000D9,false,Rx,0,8,2B,FB,00,10,00,F0,7F,CF,
61597673,000000A5,false,Rx,0,8,93,0D,FF,F7,FF,00,00,C1,
773,000000A7,false,Rx,0,7,73,FD,FF,F0,FF,FF,0F,00,
773,000000DC,false,Rx,0,6,9F,0D,22,D0,07,EE,00,00,
774,00000297,false,Rx,0,7,76,FB,F0,E0,F0,F0,A8,00,
774,00000201,false,Rx,0,8,55,B8,87,C7,00,FF,F0,FF,
775,000002AA,false,Rx,0,8,00,FF,FF,FF,FF,FF,FF,FF,
1962,0000034B,false,Rx,0,8,F2,FF,FF,FF,FF,FF,FF,FF,
1963,000003B4,false,Rx,0,8,FF,FF,FC,FF,F8,F8,00,FF,
1963,000003FD,false,Rx,0,5,8A,0D,20,FF,FF,00,00,00,
3424,000001A1,false,Rx,0,5,61,C7,00,00,81,00,00,00,
3425,00000197,false,Rx,0,4,B8,06,FE,FC,00,00,00,00,
5647,00000083,false,Rx,0,8,FF,7F,FF,7F,FF,7F,FF,7F,
5648,00000254,false,Rx,0,8,FF,7F,FF,7F,FF,7F,FF,7F,
6673,0000019F,false,Rx,0,6,37,F0,FF,7F,00,10,00,00,
6675,00000234,false,Rx,0,5,B1,A7,FE,FF,00,00,00,00,
8102,0000036F,false,Rx,0,5,48,F4,FE,FF,14,00,00,00,
8103,000001DB,false,Rx,0,8,8C,00,0A,6E,50,08,1A,FF,
8104,0000003C,false,Rx,0,8,37,AD,02,92,01,00,2A,FF,
10565,000000D9,false,Rx,0,8,A5,FC,00,10,00,F0,7F,CF,
10565,000000FA,false,Rx,0,8,05,FD,FD,FD,FD,FD,FD,E9,
10566,000002AE,false,Rx,0,8,FF,00,FF,64,FF,AF,64,00,
10566,000001C8,false,Rx,0,8,00,00,00,00,F0,31,FF,FF,
11642,00000265,false,Rx,0,8,F1,66,88,13,70,30,FF,FF,
11643,00000340,false,Rx,0,2,F3,FF,00,00,00,00,00,00,
14780,0000042B,false,Rx,0,4,95,1F,72,30,00,00,00,00,
16657,00000199,false,Rx,0,6,16,F1,E1,7E,00,20,00,00,
16658,0000019A,false,Rx,0,6,8B,F1,40,7F,00,10,00,00,
19304,000002EB,false,Rx,0,8,01,F1,11,11,11,62,11,FF,
19305,000001E4,false,Rx,0,8,B1,0C,61,61,11,11,11,11,
20488,000000D9,false,Rx,0,8,F8,FD,00,10,00,F0,7F,CF,
20488,000000A5,false,Rx,0,8,74,0E,FF,F7,FF,00,00,C1,
20488,000000A7,false,Rx,0,7,B9,FE,FF,F0,FF,FF,0F,00,
20489,000000DC,false,Rx,0,6,21,0E,22,D0,07,EE,00,00,
21632,0000032B,false,Rx,0,8,BF,00,32,39,FF,FF,FF,FF,
21632,00000302,false,Rx,0,7,E4,F1,B6,6F,01,00,00,00,
23513,000001A1,false,Rx,0,5,09,C8,00,00,81,00,00,00,
25641,00000083,false,Rx,0,8,FF,7F,FF,7F,FF,7F,FF,7F,
25641,00000254,false,Rx,0,8,FF,7F,FF,7F,FF,7F,FF,7F,
25641,0000019F,false,Rx,0,6,7F,F2,F7,7F,00,10,00,00,
28432,00000096,false,Rx,0,8,64,00,54,AA,01,FF,FF,FF,
28432,0000040F,false,Rx,0,4,27,2C,0C,F1,00,00,00,00,
30637,000000D9,false,Rx,0,8,1F,FE,00,10,00,F0,7F,CF,
30638,000000FA,false,Rx,0,8,00,D4,00,E0,7F,01,0A,C4,
30638,000002AE,false,Rx,0,8,FF,00,FF,64,FF,AF,64,00,
32196,00000350,false,Rx,0,8,FF,FF,FF,63,FF,FF,FF,FF,
33360,000002A7,false,Rx,0,5,8E,F9,FE,FF,14,00,00,00,
33361,0000008F,false,Rx,0,8,FF,FF,00,7D,F2,FF,FF,FF,
33361,00000197,false,Rx,0,4,37,07,FE,FC,00,00,00,00,
34634,000001B3,false,Rx,0,8,C4,12,00,0B,00,FF,FF,96,
36630,00000199,false,Rx,0,6,C2,F3,E1,7E,00,20,00,00,
36631,0000019A,false,Rx,0,6,8C,F3,45,7F,00,10,00,00,
38267,00000314,false,Rx,0,5,50,80,1D,FF,FF,00,00,00,
38268,00000349,false,Rx,0,5,FE,FF,FE,FF,FF,00,00,00,
39777,000001C0,false,Rx,0,8,5F,39,00,40,63,55,55,57,
39778,00000371,false,Rx,0,5,50,41,32,50,FD,00,00,00,
39778,000000D9,false,Rx,0,8,1E,F0,00,10,00,F0,7F,CF,
39779,000000A5,false,Rx,0,8,75,00,FF,F7,FF,00,00,C1,
40726,000000C0,false,Rx,0,2,F9,40,00,00,00,00,00,00,
40726,000000A7,false,Rx,0,7,3A,F0,FF,F0,FF,FF,0F,00,
40727,000000DC,false,Rx,0,6,37,00,22,D0,07,EE,00,00,
40727,00000095,false,Rx,0,8,64,68,96,00,00,F0,00,00,
40727,000001CE,false,Rx,0,8,64,68,96,00,00,F0,00,00,
41834,000001CF,false,Rx,0,8,64,68,96,00,00,F0,00,00,
41834,00000173,false,Rx,0,8,38,F1,00,02,20,00,D2,98,
43412,000001A1,false,Rx,0,5,94,C9,00,00,81,00,00,00,
45630,00000083,false,Rx,0,8,FF,7F,FF,7F,FF,7F,FF,7F,
45631,00000254,false,Rx,0,8,FF,7F,FF,7F,FF,7F,FF,7F,
46609,0000019F,false,Rx,0,6,90,F4,03,80,00,10,00,00,
48634,000001DB,false,Rx,0,8,8C,00,0A,6E,50,08,1A,FF,
48635,000001E1,false,Rx,0,6,DF,F0,00,FF,FF,FF,00,00,
50033,000002BB,false,Rx,0,5,8E,F5,3F,00,F2,00,00,00,
50034,000000D9,false,Rx,0,8,43,F1,00,10,00,F0,7F,CF,
50034,000000FA,false,Rx,0,8,02,C0,08,00,C8,07,D0,D7,
50034,000002AE,false,Rx,0,8,FF,00,FF,64,FF,AF,64,00,
51601,00000201,false,Rx,0,8,6A,B8,9C,C7,00,FF,F0,FF,
51602,0000029D,false,Rx,0,8,FF,FF,FF,FF,0F,FF,FF,FF,
51603,000002C4,false,Rx,0,8,00,00,00,FF,FF,00,00,0F,
52611,00000308,false,Rx,0,8,FF,F1,FF,FF,FF,FF,FF,FF,
56637,00000199,false,Rx,0,6,18,F5,EB,7E,00,20,00,00,
56638,0000019A,false,Rx,0,6,3E,F5,40,7F,00,10,00,00,
58600,00000096,false,Rx,0,8,64,00,54,AA,01,FF,FF,FF,
60391,000000D9,false,Rx,0,8,A4,F2,00,10,00,F0,7F,CF,
60391,000000A5,false,Rx,0,8,28,01,FF,F7,FF,00,00,C1,
60392,000000A7,false,Rx,0,7,7C,F1,FF,F0,FF,FF,0F,00,
60392,000000DC,false,Rx,0,6,5D,01,22,D0,07,EE,00,00,
61638,00000302,false,Rx,0,7,E1,F5,B6,6F,01,00,00,00,
63470,000001A1,false,Rx,0,5,2E,CA,00,00,81,00,00,00,
63471,00000197,false,Rx,0,4,B1,08,FE,FC,00,00,00,00,
65600,000003A1,false,Rx,0,8,00,01,00,03,00,C0,00,F0,
65601,00000083,false,Rx,0,8,FF,7F,FF,7F,FF,7F,FF,7F,
65602,00000254,false,Rx,0,8,FF,7F,FF,7F,FF,7F,FF,7F,
66628,0000019F,false,Rx,0,6,71,F6,FD,7F,00,10,00,00,
68169,000002E0,false,Rx,0,6,20,F5,75,40,24,FF,00,00,
68170,00000065,false,Rx,0,8,60,82,00,03,FF,FF,FF,FF,
69230,000002EB,false,Rx,0,8,E6,F2,11,11,11,62,11,FF,
70408,000000D9,false,Rx,0,8,F9,F3,00,10,00,F0,7F,CF,
70409,000001AE,false,Rx,0,3,07,65,1A,00,00,00,00,00,
70409,000002AE,false,Rx,0,8,FF,00,FF,64,FF,AF,64,00,
70410,00000145,false,Rx,0,3,C8,9F,F0,00,00,00,00,00,
70410,000001E4,false,Rx,0,8,EC,0D,61,61,11,11,11,11,
71562,000000FA,false,Rx,0,8,03,10,08,02,38,59,28,CA,
71563,00000284,false,Rx,0,8,C8,80,0C,FF,FF,FF,FF,0F,
71563,00000032,false,Rx,0,8,0E,FA,00,00,01,FC,FF,FF,
73686,0000008F,false,Rx,0,8,FF,FF,00,7D,F2,FF,FF,FF,
75065,00000102,false,Rx,0,8,AB,91,F0,FF,FF,FF,FF,FF,
75065,00000105,false,Rx,0,8,57,A1,00,F0,FF,FF,FF,FF,
75066,00000328,false,Rx,0,6,B6,6C,D9,05,68,25,00,00,
76632,00000199,false,Rx,0,6,71,F7,D7,7E,00,20,00,00,
76633,0000019A,false,Rx,0,6,39,F7,45,7F,00,10,00,00,
78317,000000CA,false,Rx,0,8,E1,2E,00,00,00,00,FD,F7,
79566,000001C0,false,Rx,0,8,B8,3A,00,40,63,55,55,57,
79567,00000376,false,Rx,0,3,E7,13,11,00,00,00,00,00,
79567,000000D9,false,Rx,0,8,77,F4,00,10,00,F0,7F,CF,
79568,000000A5,false,Rx,0,8,CF,02,FF,F7,FF,00,00,C1,
80814,000000A7,false,Rx,0,7,B6,F2,FF,F0,FF,FF,0F,00,
80815,000000DC,false,Rx,0,6,E3,02,22,D0,07,EE,00,00,
80816,00000163,false,Rx,0,8,C7,F7,04,25,13,15,04,F5,
83605,000001A1,false,Rx,0,5,B3,CB,00,00,81,00,00,00,
85451,00000378,false,Rx,0,8,C6,F2,61,21,FF,10,FF,6F,
85452,00000083,false,Rx,0,8,FF,7F,FF,7F,FF,7F,FF,7F,
85453,00000254,false,Rx,0,8,FF,7F,FF,7F,FF,7F,FF,7F,
86640,0000019F,false,Rx,0,6,40,F8,FF,7F,00,10,00,00,
87634,0000036E,false,Rx,0,5,87,F4,FE,FF,14,00,00,00,
87636,000001DB,false,Rx,0,8,8C,00,0A,6E,50,08,1A,FF,
87637,00000096,false,Rx,0,8,64,00,54,AA,01,FF,FF,FF,
88769,0000012F,false,Rx,0,8,D5,7B,FA,DD,FF,FF,FF,00,
88770,000003CA,false,Rx,0,8,F1,60,60,FF,08,86,FF,FF,
90594,000000D9,false,Rx,0,8,2A,F5,00,10,00,F0,7F,CF,
90595,000000FA,false,Rx,0,8,05,86,12,08,76,76,76,00,
90596,000002AE,false,Rx,0,8,FF,00,FF,64,FF,AF,64,00,
91633,00000510,false,Rx,0,8,40,10,00,02,02,92,01,00,
91634,00000173,false,Rx,0,8,B6,F6,00,02,20,00,D2,98,
94092,00000197,false,Rx,0,4,3E,09,FE,FC,00,00,00,00,
95236,000000AB,false,Rx,0,8,AD,F1,04,00,00,D0,FF,FF,
96631,00000276,false,Rx,0,8,C0,00,00,00,00,C0,FF,FF,
96633,00000199,false,Rx,0,6,61,F9,E1,7E,00,20,00,00,
96635,0000019A,false,Rx,0,6,21,F9,3B,7F,00,10,00,00,
98399,000002A6,false,Rx,0,2,00,B1,00,00,00,00,00,00,
100657,000000D9,false,Rx,0,8,CD,F6,00,10,00,F0,7F,CF,
100658,000000A5,false,Rx,0,8,92,03,FF,F7,FF,00,00,C1,
100660,000000A7,false,Rx,0,7,F0,F3,FF,F0,FF,FF,0F,00,
100662,000000DC,false,Rx,0,6,89,03,22,D0,07,EE,00,00,
100663,000003FD,false,Rx,0,5,30,0E,20,FF,FF,00,00,00,
101671,00000095,false,Rx,0,8,64,68,96,00,00,F0,00,00,
101674,000001CE,false,Rx,0,8,64,68,96,00,00,F0,00,00,
101676,000001CF,false,Rx,0,8,64,68,96,00,00,F0,00,00,
101678,00000201,false,Rx,0,8,7E,B8,AF,C7,00,FF,F0,FF,
101680,00000302,false,Rx,0,7,EE,F9,B6,6F,01,00,00,00,
103490,000001A1,false,Rx,0,5,47,CC,00,00,81,00,00,00,
105704,00000083,false,Rx,0,8,FF,7F,FF,7F,FF,7F,FF,7F,
105707,00000254,false,Rx,0,8,FF,7F,FF,7F,FF,7F,FF,7F,
106693,0000019F,false,Rx,0,6,B3,FA,FD,7F,00,10,00,00,
108377,0000003C,false,Rx,0,8,D0,AE,02,92,01,00,2A,FF,
110665,000000D9,false,Rx,0,8,90,F7,00,10,00,F0,7F,CF,
110671,000000FA,false,Rx,0,8,05,FD,FD,FD,FD,FD,FD,E9,
110674,0000026B,false,Rx,0,8,31,12,FD,FF,FF,FF,FF,FF,
110677,000002AE,false,Rx,0,8,FF,00,FF,64,FF,AF,64,00,
111677,00000265,false,Rx,0,8,F1,66,88,13,70,30,FF,FF,
111680,0000030C,false,Rx,0,5,61,FA,FE,FF,14,00,00,00,
111681,0000031C,false,Rx,0,8,FF,3F,FF,FF,09,00,40,FD,
113426,000002A7,false,Rx,0,5,34,FA,FE,FF,14,00,00,00,
113430,000001C3,false,Rx,0,8,99,40,00,00,00,00,00,00,
113432,0000008F,false,Rx,0,8,FF,FF,00,7D,F2,FF,FF,FF,
113435,000001DD,false,Rx,0,8,00,00,00,F0,FF,FF,FF,FF,
115671,000003C0,false,Rx,0,8,01,44,D4,FD,FF,FF,FF,FF,
116108,0000021D,false,Rx,0,8,00,00,00,FF,FF,FF,FF,FF,
116110,00000203,false,Rx,0,8,2D,80,00,FF,FF,FF,00,C0,
116112,00000199,false,Rx,0,6,B5,FB,E1,7E,00,20,00,00,
116114,0000019A,false,Rx,0,6,28,FB,40,7F,00,10,00,00,
118469,00000096,false,Rx,0,8,64,00,54,AA,01,FF,FF,FF,
118472,000002EB,false,Rx,0,8,BB,F3,11,11,11,62,11,FF,
118473,000001E4,false,Rx,0,8,0B,0E,61,61,11,11,11,11,
119649,000001C0,false,Rx,0,8,E5,3B,00,40,63,55,55,57,
119652,000000D9,false,Rx,0,8,CC,F8,00,10,00,F0,7F,CF,
119654,000000A5,false,Rx,0,8,1C,04,FF,F7,FF,00,00,C1,
120861,000000A7,false,Rx,0,7,3F,F4,FF,F0,FF,FF,0F,00,
120864,000000DC,false,Rx,0,6,82,04,22,D0,07,EE,00,00,
120866,0000032B,false,Rx,0,8,BF,00,32,39,FF,FF,FF,FF,
123485,000001A1,false,Rx,0,5,DA,CD,00,00,81,00,00,00,
123487,00000197,false,Rx,0,4,B2,0A,FE,FC,00,00,00,00,
125620,00000083,false,Rx,0,8,FF,7F,FF,7F,FF,7F,FF,7F,
125622,00000254,false,Rx,0,8,FF,7F,FF,7F,FF,7F,FF,7F,
125624,0000033A,false,Rx,0,8,0C,2C,28,13,22,19,FD,FD,
126646,0000019F,false,Rx,0,6,D2,FC,FD,7F,00,10,00,00,
128218,000001DB,false,Rx,0,8,8C,00,0A,6E,50,08,1A,FF,
128221,000002CA,false,Rx,0,2,70,74,00,00,00,00,00,00,
129671,000001BB,false,Rx,0,8,FF,FF,00,FF,FF,FF,FF,FF,
129674,000000D9,false,Rx,0,8,91,F9,00,10,00,F0,7F,CF,
131004,000000FA,false,Rx,0,8,00,E4,00,E0,7F,01,0A,C4,
131007,000002AE,false,Rx,0,8,FF,00,FF,64,FF,AF,64,00,
131008,000004A5,false,Rx,0,8,FF,00,00,00,00,00,F0,FF,
134950,000001B3,false,Rx,0,8,C4,12,00,0C,00,FF,FF,97,
134953,000002F8,false,Rx,0,8,0C,2C,28,14,35,EA,07,F1,
136646,00000199,false,Rx,0,6,D2,FD,D7,7E,00,20,00,00,
136649,0000019A,false,Rx,0,6,94,FD,3B,7F,00,10,00,00,
137709,0000034A,false,Rx,0,8,E6,B3,70,FB,59,CE,89,26,
140187,00000064,false,Rx,0,8,B1,FD,F2,FF,FF,FF,FF,FF,
140192,000000D9,false,Rx,0,8,76,FA,00,10,00,F0,7F,CF,
140196,000000A5,false,Rx,0,8,41,05,FF,F7,FF,00,00,C1,
140198,000000A7,false,Rx,0,7,79,F5,FF,F0,FF,FF,0F,00,
140201,000000DC,false,Rx,0,6,E8,05,22,D0,07,EE,00,00,
141612,000001A0,false,Rx,0,5,BA,18,FC,FF,30,00,00,00,
141614,00000173,false,Rx,0,8,50,FB,00,02,20,00,D2,98,
141617,00000302,false,Rx,0,7,EB,FD,B6,6F,01,00,00,00,
143527,000001A1,false,Rx,0,5,60,CE,00,00,81,00,00,00,
145686,00000083,false,Rx,0,8,FF,7F,FF,7F,FF,7F,FF,7F,
145688,00000254,false,Rx,0,8,FF,7F,FF,7F,FF,7F,FF,7F,
146682,0000019F,false,Rx,0,6,6F,FE,FB,7F,00,10,00,00,
148346,000002A5,false,Rx,0,2,FE,FE,00,00,00,00,00,00,
148349,00000096,false,Rx,0,8,64,00,54,AA,01,FF,FF,FF,
150158,000002BB,false,Rx,0,5,34,F6,3F,00,F2,00,00,00,
150161,000000D9,false,Rx,0,8,2B,FB,00,10,00,F0,7F,CF,
150162,000002AE,false,Rx,0,8,FF,00,FF,64,FF,AF,64,00,
151310,000000FA,false,Rx,0,8,02,C0,08,00,C8,07,D0,D7,
151313,00000201,false,Rx,0,8,91,B8,C3,C7,00,FF,F0,FF,
151315,0000029D,false,Rx,0,8,FF,FF,FF,FF,0F,FF,FF,FF,
151317,000002C4,false,Rx,0,8,00,00,00,FF,FF,00,00,0F,
153759,0000008F,false,Rx,0,8,FF,FF,00,7D,F2,FF,FF,FF,
153763,00000197,false,Rx,0,4,3D,0B,FE,FC,00,00,00,00,
156635,00000199,false,Rx,0,6,7C,F0,E1,7E,00,20,00,00,
156638,0000019A,false,Rx,0,6,5A,F0,4A,7F,00,10,00,00,
157972,0000034C,false,Rx,0,8,76,00,00,00,AC,03,F0,FF,
157974,000000CA,false,Rx,0,8,E0,20,00,00,00,00,FD,F7,
157976,000003D7,false,Rx,0,8,A8,28,59,96,65,00,00,00,
159731,000001C0,false,Rx,0,8,6B,3C,00,40,63,55,55,57,
159734,000000D9,false,Rx,0,8,A5,FC,00,10,00,F0,7F,CF,
159737,000000A5,false,Rx,0,8,A6,06,FF,F7,FF,00,00,C1,
160828,000000A7,false,Rx,0,7,B3,F6,FF,F0,FF,FF,0F,00,
160833,000000DC,false,Rx,0,6,56,06,22,D0,07,EE,00,00,
160835,00000095,false,Rx,0,8,64,68,96,00,00,F0,00,00,
160838,000001CE,false,Rx,0,8,64,68,96,00,00,F0,00,00,
161950,000001CF,false,Rx,0,8,64,68,96,00,00,F0,00,00,
163452,000001A1,false,Rx,0,5,95,C0,00,00,81,00,00,00,
165665,00000083,false,Rx,0,8,FF,7F,FF,7F,FF,7F,FF,7F,
165669,00000254,false,Rx,0,8,FF,7F,FF,7F,FF,7F,FF,7F,
165671,00000293,false,Rx,0,5,8A,A5,FE,FF,14,00,00,00,
166648,0000019F,false,Rx,0,6,34,F1,F9,7F,00,10,00,00,
168152,0000036F,false,Rx,0,5,D5,F5,FE,FF,14,00,00,00,
168156,000001DB,false,Rx,0,8,8C,00,0A,6E,50,08,1A,FF,
168159,00000065,false,Rx,0,8,3D,83,00,03,FF,FF,FF,FF,
168162,000001F6,false,Rx,0,2,80,D0,00,00,00,00,00,00,
168165,000002E0,false,Rx,0,6,9E,F6,75,40,24,FF,00,00,
169311,000002EB,false,Rx,0,8,35,F4,11,11,11,62,11,FF,
170453,000000D9,false,Rx,0,8,F8,FD,00,10,00,F0,7F,CF,
170457,000002AE,false,Rx,0,8,FF,00,FF,64,FF,AF,64,00,
170458,000000FA,false,Rx,0,8,03,10,08,02,38,59,28,CA,
170460,000001AE,false,Rx,0,3,07,65,1A,00,00,00,00,00,
171696,00000284,false,Rx,0,8,C8,80,0C,FF,FF,FF,FF,0F,
171699,000001E4,false,Rx,0,8,0A,00,61,61,11,11,11,11,
171701,000003D2,false,Rx,0,2,F3,FF,00,00,00,00,00,00,
171703,00000426,false,Rx,0,4,FF,FF,FF,F0,00,00,00,00,
171705,00000438,false,Rx,0,4,FF,FF,FF,F0,00,00,00,00,
176693,00000199,false,Rx,0,6,13,F2,EB,7E,00,20,00,00,
176697,0000019A,false,Rx,0,6,E8,F2,3B,7F,00,10,00,00,
176701,0000028E,false,Rx,0,5,54,D5,FE,FF,14,00,00,00,
178308,000001D6,false,Rx,0,3,C0,C0,FF,00,00,00,00,00,
178310,00000096,false,Rx,0,8,64,00,54,AA,01,FF,FF,FF,
179636,00000376,false,Rx,0,3,1E,14,11,00,00,00,00,00,
179640,00000138,false,Rx,0,8,FF,FF,FF,FF,FF,FF,FF,FF,
179645,000000D9,false,Rx,0,8,1F,FE,00,10,00,F0,7F,CF,
180706,000000A5,false,Rx,0,8,FB,07,FF,F7,FF,00,00,C1,
180709,00000294,false,Rx,0,5,C8,CD,FE,FF,14,00,00,00,
180710,000000A7,false,Rx,0,7,F5,F7,FF,F0,FF,FF,0F,00,
180712,000000DC,false,Rx,0,6,3C,07,22,D0,07,EE,00,00,
181745,00000163,false,Rx,0,8,F3,F2,04,25,13,15,04,F5,
181749,00000302,false,Rx,0,7,2E,F2,B6,6F,01,00,00,00,
183594,000001A1,false,Rx,0,5,08,C1,00,00,81,00,00,00,
183597,00000197,false,Rx,0,4,B7,0C,FE,FC,00,00,00,00,
185796,00000083,false,Rx,0,8,FF,7F,FF,7F,FF,7F,FF,7F,
185799,00000254,false,Rx,0,8,FF,7F,FF,7F,FF,7F,FF,7F,
185800,0000019F,false,Rx,0,6,AE,F3,FD,7F,00,10,00,00,
186922,00000301,false,Rx,0,7,07,C3,04,72,FF,FF,2F,00,
188375,0000012F,false,Rx,0,8,5B,7C,FA,DD,FF,FF,FF,00,
190326,000003F9,false,Rx,0,8,59,F1,00,73,3E,30,33,00,
190329,000000D9,false,Rx,0,8,1E,F0,00,10,00,F0,7F,CF,
191299,000002AE,false,Rx,0,8,FF,00,FF,64,FF,AF,64,00,
191303,00000173,false,Rx,0,8,38,F1,00,02,20,00,D2,98,
191305,000003E9,false,Rx,0,8,FF,FF,0F,FF,FF,FF,FF,FF,
191308,000000FA,false,Rx,0,8,05,86,12,08,76,76,76,00,
191311,00000287,false,Rx,0,8,C1,0C,FE,F0,3D,FF,30,FD,
192548,00000510,false,Rx,0,8,40,10,00,02,02,92,01,00,
192552,000002A7,false,Rx,0,5,A9,FB,FE,FF,14,00,00,00,
193695,0000008F,false,Rx,0,8,FF,FF,00,7D,F2,FF,FF,FF,
196740,00000199,false,Rx,0,6,72,F4,EB,7E,00,20,00,00,
196742,0000019A,false,Rx,0,6,EF,F4,4A,7F,00,10,00,00,
198231,000000C8,false,Rx,0,8,70,FF,FF,FF,FF,FF,FF,FF,
198235,00000314,false,Rx,0,5,50,80,1D,FF,FF,00,00,00,
199252,0000037F,false,Rx,0,2,FF,F0,00,00,00,00,00,00,
199254,000001C0,false,Rx,0,8,36,3D,00,40,63,55,55,57,
200392,000000D9,false,Rx,0,8,43,F1,00,10,00,F0,7F,CF,
200394,000000A5,false,Rx,0,8,A7,08,FF,F7,FF,00,00,C1,
200396,0000006E,false,Rx,0,8,00,13,09,16,09,00,00,FF,
200399,000000A7,false,Rx,0,7,30,F8,FF,F0,FF,FF,0F,00,
200401,0000006F,false,Rx,0,8,08,13,09,00,63,43,3B,FC,
201570,000000DC,false,Rx,0,6,40,08,22,D0,07,EE,00,00,
201576,00000201,false,Rx,0,8,A5,B8,D6,C7,00,FF,F0,FF,
201579,00000297,false,Rx,0,7,B9,FC,F0,E0,F0,F0,A8,00,
201582,000003B4,false,Rx,0,8,FF,FF,FC,FF,F8,F8,00,FF,
201585,000003FD,false,Rx,0,5,C5,00,20,FF,FF,00,00,00,
202605,000007C1,false,Rx,0,8,0A,10,00,0C,FF,04,01,00,
202609,000001A1,false,Rx,0,5,B2,C2,00,00,81,00,00,00,
205663,00000083,false,Rx,0,8,FF,7F,FF,7F,FF,7F,FF,7F,
205666,00000254,false,Rx,0,8,FF,7F,FF,7F,FF,7F,FF,7F,
206678,0000019F,false,Rx,0,6,A6,F5,FB,7F,00,10,00,00,
208243,000001DB,false,Rx,0,8,8C,00,0A,6E,50,08,1A,FF,
208246,0000003C,false,Rx,0,8,D1,A0,02,92,01,00,2A,FF,
208248,00000096,false,Rx,0,8,64,00,54,AA,01,FF,FF,FF,
209676,000004AB,false,Rx,0,6,84,03,FD,FF,F2,F2,00,00,
209679,000000D9,false,Rx,0,8,A4,F2,00,10,00,F0,7F,CF,
210854,000000FA,false,Rx,0,8,05,FD,FD,FD,FD,FD,FD,E9,
210857,000002AE,false,Rx,0,8,FF,00,FF,64,FF,AF,64,00,
210859,000001C8,false,Rx,0,8,00,00,00,00,F0,31,FF,FF,
210861,00000265,false,Rx,0,8,F1,66,88,13,70,30,FF,FF,
212297,00000340,false,Rx,0,2,F3,FF,00,00,00,00,00,00,
213991,00000197,false,Rx,0,4,38,0D,FE,FC,00,00,00,00,
213994,0000042B,false,Rx,0,4,95,1F,72,30,00,00,00,00,
216662,00000199,false,Rx,0,6,1D,F6,E1,7E,00,20,00,00,
216664,0000019A,false,Rx,0,6,3B,F6,4A,7F,00,10,00,00,
218883,000002EB,false,Rx,0,8,68,F5,11,11,11,62,11,FF,
218886,000001E4,false,Rx,0,8,57,01,61,61,11,11,11,11,
220374,000000D9,false,Rx,0,8,F9,F3,00,10,00,F0,7F,CF,
220380,000000A5,false,Rx,0,8,FA,09,FF,F7,FF,00,00,C1,
220382,000000A7,false,Rx,0,7,76,F9,FF,F0,FF,FF,0F,00,
220385,00000095,false,Rx,0,8,64,68,96,00,00,F0,00,00,
220388,000000DC,false,Rx,0,6,2A,09,22,D0,07,EE,00,00,
221493,000001CE,false,Rx,0,8,64,68,96,00,00,F0,00,00,
221496,000001CF,false,Rx,0,8,64,68,96,00,00,F0,00,00,
221498,000001BC,false,Rx,0,6,FF,FF,F0,FF,FF,FF,00,00,
221501,000002D8,false,Rx,0,8,FD,FF,FF,FF,22,22,12,80,
221504,00000302,false,Rx,0,7,2B,F6,B6,6F,01,00,00,00,
222659,0000031B,false,Rx,0,6,FF,FF,F0,FF,FF,FF,00,00,
222662,000001A1,false,Rx,0,5,2F,C3,00,00,81,00,00,00,
224014,00000384,false,Rx,0,8,FF,FF,F7,FF,FF,FF,FF,FF,
225632,00000083,false,Rx,0,8,FF,7F,FF,7F,FF,7F,FF,7F,
225635,00000254,false,Rx,0,8,FF,7F,FF,7F,FF,7F,FF,7F,
225636,0000019F,false,Rx,0,6,A1,F7,FE,7F,00,10,00,00,
228586,000005E0,false,Rx,0,8,11,03,00,04,16,2C,C5,10,
230470,000000D9,false,Rx,0,8,77,F4,00,10,00,F0,7F,CF,
230473,000002AE,false,Rx,0,8,FF,00,FF,64,FF,AF,64,00,
231950,000000FA,false,Rx,0,8,00,04,00,E0,7F,01,0A,C4,
233794,0000008F,false,Rx,0,8,FF,FF,00,7D,F2,FF,FF,FF,
233796,000001B3,false,Rx,0,8,C4,12,00,0D,00,FF,FF,98,
236661,00000199,false,Rx,0,6,0B,F8,E1,7E,00,20,00,00,
236662,0000019A,false,Rx,0,6,96,F8,40,7F,00,10,00,00,
238266,000000CA,false,Rx,0,8,BD,21,00,00,00,00,FD,F7,
238267,00000096,false,Rx,0,8,64,00,54,AA,01,FF,FF,FF,
238268,00000349,false,Rx,0,5,FE,FF,FE,FF,FF,00,00,00,
239624,000001C0,false,Rx,0,8,D1,3E,00,40,63,55,55,57,
240749,000000D9,false,Rx,0,8,2A,F5,00,10,00,F0,7F,CF,
240751,000000A5,false,Rx,0,8,1D,0A,FF,F7,FF,00,00,C1,
240752,000000A7,false,Rx,0,7,BC,FA,FF,F0,FF,FF,0F,00,
240753,000000B4,false,Rx,0,4,EE,4F,3B,1F,00,00,00,00,
240753,000000B6,false,Rx,0,8,E3,35,00,FF,FF,FF,FF,FF,
241852,000000B7,false,Rx,0,8,3F,00,00,00,FF,FF,FF,FF,
241853,000000C0,false,Rx,0,2,FA,40,00,00,00,00,00,00,
241854,000000DC,false,Rx,0,6,94,0A,22,D0,07,EE,00,00,
241855,000002F4,false,Rx,0,2,00,00,00,00,00,00,00,00,
241856,00000347,false,Rx,0,8,38,4A,F8,2A,FC,FF,F8,FF,
241857,000003A0,false,Rx,0,8,FF,FF,C0,FF,FF,FF,F0,FC,
243431,000001A1,false,Rx,0,5,DB,C4,00,00,81,00,00,00,
243434,00000197,false,Rx,0,4,B4,0E,FE,FC,00,00,00,00,
243435,00000173,false,Rx,0,8,EB,F7,00,02,20,00,D2,98,
245615,00000083,false,Rx,0,8,FF,7F,FF,7F,FF,7F,FF,7F,
245616,00000254,false,Rx,0,8,FF,7F,FF,7F,FF,7F,FF,7F,
245617,00000296,false,Rx,0,5,4B,E6,FE,FF,14,00,00,00,
245618,0000019F,false,Rx,0,6,39,F9,0A,80,00,10,00,00,
248083,0000036E,false,Rx,0,5,1A,F5,FE,FF,14,00,00,00,
248084,000001DB,false,Rx,0,8,8C,00,0A,6E,50,08,1A,FF,
248085,000001E1,false,Rx,0,6,B5,F1,00,FF,FF,FF,00,00,
250083,000002BB,false,Rx,0,5,A9,F7,3F,00,F2,00,00,00,
250084,000000D9,false,Rx,0,8,CD,F6,00,10,00,F0,7F,CF,
250085,000000FA,false,Rx,0,8,02,C0,08,00,C8,07,D0,D7,
250085,000002AE,false,Rx,0,8,FF,00,FF,64,FF,AF,64,00,
251312,00000201,false,Rx,0,8,B8,B8,EA,C7,00,FF,F0,FF,
251313,000002C4,false,Rx,0,8,00,00,00,FF,FF,00,00,0F,
251314,0000029D,false,Rx,0,8,FF,FF,FF,FF,0F,FF,FF,FF,
256655,00000199,false,Rx,0,6,64,FA,EB,7E,00,20,00,00,
256656,0000019A,false,Rx,0,6,42,FA,40,7F,00,10,00,00,
260348,000000D9,false,Rx,0,8,90,F7,00,10,00,F0,7F,CF,
260349,000000A5,false,Rx,0,8,40,0B,FF,F7,FF,00,00,C1,
260350,000000A7,false,Rx,0,7,FA,FB,FF,F0,FF,FF,0F,00,
260350,000000DC,false,Rx,0,6,FE,0B,22,D0,07,EE,00,00,
261684,00000302,false,Rx,0,7,24,FA,B6,6F,01,00,00,00,
263487,000001A1,false,Rx,0,5,46,C5,00,00,81,00,00,00,
265460,000003A1,false,Rx,0,8,00,01,00,03,00,C0,00,F0,
265464,00000083,false,Rx,0,8,FF,7F,FF,7F,FF,7F,FF,7F,
265466,00000254,false,Rx,0,8,FF,7F,FF,7F,FF,7F,FF,7F,
266609,0000019F,false,Rx,0,6,71,FB,02,80,00,10,00,00,
268115,000002E0,false,Rx,0,6,F4,F7,75,40,24,FF,00,00,
268116,00000065,false,Rx,0,8,B3,84,00,03,FF,FF,FF,FF,
268116,00000096,false,Rx,0,8,64,00,54,AA,01,FF,FF,FF,
269304,000002EB,false,Rx,0,8,8F,F6,11,11,11,62,11,FF,
270380,000000D9,false,Rx,0,8,CC,F8,00,10,00,F0,7F,CF,
270380,000001AE,false,Rx,0,3,07,65,1A,00,00,00,00,00,
270381,000001E4,false,Rx,0,8,B0,02,61,61,11,11,11,11,
270381,00000145,false,Rx,0,3,C8,9F,F0,00,00,00,00,00,
270382,000002AE,false,Rx,0,8,FF,00,FF,64,FF,AF,64,00,
270382,000000FA,false,Rx,0,8,03,10,08,02,38,59,28,CA,
271588,00000284,false,Rx,0,8,C8,80,0C,FF,FF,FF,FF,0F,
271589,0000030C,false,Rx,0,5,FC,FB,FE,FF,14,00,00,00,
271590,0000026C,false,Rx,0,8,9E,89,F1,FF,FF,FF,FF,FF,
273295,000002A7,false,Rx,0,5,5D,FC,FE,FF,14,00,00,00,
273296,0000008F,false,Rx,0,8,FF,FF,00,7D,F2,FF,FF,FF,
273296,00000197,false,Rx,0,4,BD,00,FE,FC,00,00,00,00,
275686,0000019D,false,Rx,0,8,0A,3E,92,02,FF,FF,FF,FF,
275686,00000199,false,Rx,0,6,BE,FC,E1,7E,00,20,00,00,
276834,0000019A,false,Rx,0,6,98,FC,4A,7F,00,10,00,00,
279595,000001C0,false,Rx,0,8,D0,30,00,40,63,55,55,57,
279595,00000376,false,Rx,0,3,52,15,11,00,00,00,00,00,
279596,000000D9,false,Rx,0,8,91,F9,00,10,00,F0,7F,CF,
280641,000000A5,false,Rx,0,8,CE,0C,FF,F7,FF,00,00,C1,
280642,000000A7,false,Rx,0,7,35,FC,FF,F0,FF,FF,0F,00,
280643,000000DC,false,Rx,0,6,F5,0C,22,D0,07,EE,00,00,
280643,00000095,false,Rx,0,8,64,68,96,00,00,F0,00,00,
280643,000001CE,false,Rx,0,8,64,68,96,00,00,F0,00,00,
281855,000001CF,false,Rx,0,8,64,68,96,00,00,F0,00,00,
281855,00000163,false,Rx,0,8,F2,FC,04,25,13,15,04,F5,
283601,000001A1,false,Rx,0,5,FC,C6,00,00,81,00,00,00,
285717,00000083,false,Rx,0,8,FF,7F,FF,7F,FF,7F,FF,7F,
285718,00000254,false,Rx,0,8,FF,7F,FF,7F,FF,7F,FF,7F,
285718,0000019F,false,Rx,0,6,10,FD,02,80,00,10,00,00,
288180,000001DB,false,Rx,0,8,8C,00,0A,6E,50,08,1A,FF,
288181,0000012F,false,Rx,0,8,06,7D,FA,DD,FF,FF,FF,00,
290439,000000D9,false,Rx,0,8,76,FA,00,10,00,F0,7F,CF,
290439,000000FA,false,Rx,0,8,05,86,12,08,76,76,76,00,
290440,000002AE,false,Rx,0,8,FF,00,FF,64,FF,AF,64,00,
290440,00000397,false,Rx,0,7,C2,FF,FF,FF,FF,FF,FF,00,
291617,0000041E,false,Rx,0,8,00,F1,CF,FF,FF,FF,FF,FF,
291618,00000173,false,Rx,0,8,50,FB,00,02,20,00,D2,98,
291618,00000510,false,Rx,0,8,40,10,00,02,02,92,01,00,
291619,00000200,false,Rx,0,8,01,00,74,FF,FF,00,FF,C0,
295138,000000AB,false,Rx,0,8,4A,F2,04,00,00,D0,FF,FF,
296600,00000276,false,Rx,0,8,C0,00,00,00,00,C0,FF,FF,
296601,00000199,false,Rx,0,6,6A,FE,E1,7E,00,20,00,00,
296601,0000019A,false,Rx,0,6,24,FE,45,7F,00,10,00,00,
298541,00000319,false,Rx,0,5,A7,42,FE,FF,00,00,00,00,
298542,00000096,false,Rx,0,8,64,00,54,AA,01,FF,FF,FF,
298542,0000043D,false,Rx,0,8,0A,D4,CF,68,51,1B,80,61,
300620,000000D9,false,Rx,0,8,2B,FB,00,10,00,F0,7F,CF,
300621,000000A5,false,Rx,0,8,93,0D,FF,F7,FF,00,00,C1,
300621,000000A7,false,Rx,0,7,73,FD,FF,F0,FF,FF,0F,00,
300622,000000DC,false,Rx,0,6,9F,0D,22,D0,07,EE,00,00,
300622,000003FD,false,Rx,0,5,58,01,20,FF,FF,00,00,00,
301620,00000201,false,Rx,0,8,CC,B8,FD,C7,00,FF,F0,FF,
301620,00000302,false,Rx,0,7,21,FE,B6,6F,01,00,00,00,
303652,000001A1,false,Rx,0,5,61,C7,00,00,81,00,00,00,
303653,00000197,false,Rx,0,4,32,01,FE,FC,00,00,00,00,
305654,00000083,false,Rx,0,8,FF,7F,FF,7F,FF,7F,FF,7F,
305654,00000254,false,Rx,0,8,FF,7F,FF,7F,FF,7F,FF,7F,
305655,0000019F,false,Rx,0,6,D1,F0,04,80,00,10,00,00,
308617,0000003C,false,Rx,0,8,8C,A1,02,92,01,00,2A,FF,
310617,000000D9,false,Rx,0,8,A5,FC,00,10,00,F0,7F,CF,
310618,000002AE,false,Rx,0,8,FF,00,FF,64,FF,AF,64,00,
310618,0000031C,false,Rx,0,8,FF,3F,FF,FF,09,00,40,FD,
311652,00000265,false,Rx,0,8,F1,66,88,13,70,30,FF,FF,
313629,000001DD,false,Rx,0,8,00,00,00,F0,FF,FF,FF,FF,
313630,0000008F,false,Rx,0,8,FF,FF,00,7D,F2,FF,FF,FF,
313630,000001C3,false,Rx,0,8,C4,41,00,00,00,00,00,00,
315311,0000015D,false,Rx,0,8,FF,FF,FF,0F,F0,FF,FF,FF,
315311,000000FA,false,Rx,0,8,05,FD,FD,FD,FD,FD,FD,E9,
316477,0000021D,false,Rx,0,8,00,00,00,FF,FF,FF,FF,FF,
316478,00000203,false,Rx,0,8,70,81,00,FF,FF,FF,00,C0,
316478,00000199,false,Rx,0,6,16,F1,E1,7E,00,20,00,00,
316479,0000019A,false,Rx,0,6,E3,F1,4F,7F,00,10,00,00,
318630,000000CA,false,Rx,0,8,5A,22,00,00,00,00,FD,F7,
318631,000001E4,false,Rx,0,8,ED,03,61,61,11,11,11,11,
319619,000002EB,false,Rx,0,8,D2,F7,11,11,11,62,11,FF,
319620,000001C0,false,Rx,0,8,8D,31,00,40,63,55,55,57,
319620,000000D9,false,Rx,0,8,F8,FD,00,10,00,F0,7F,CF,
320627,000000A5,false,Rx,0,8,74,0E,FF,F7,FF,00,00,C1,
320627,000000A7,false,Rx,0,7,B9,FE,FF,F0,FF,FF,0F,00,
320627,000000DC,false,Rx,0,6,21,0E,22,D0,07,EE,00,00,
320628,0000032B,false,Rx,0,8,BF,00,32,39,FF,FF,FF,FF,
323450,000001A1,false,Rx,0,5,09,C8,00,00,81,00,00,00,
325319,000007C3,false,Rx,0,8,13,01,0C,76,06,05,02,00,
325320,000007C4,false,Rx,0,4,00,00,00,1E,00,00,00,00,
325320,000007C5,false,Rx,0,8,00,00,02,01,00,01,01,AA,
325321,00000083,false,Rx,0,8,FF,7F,FF,7F,FF,7F,FF,7F,
325321,00000254,false,Rx,0,8,FF,7F,FF,7F,FF,7F,FF,7F,
326517,000007C6,false,Rx,0,3,00,00,00,00,00,00,00,00,
326518,0000019F,false,Rx,0,6,05,F2,04,80,00,10,00,00,
327802,000003CA,false,Rx,0,8,F4,60,60,FF,0A,36,FF,FF,
327803,0000036F,false,Rx,0,5,6F,F6,FE,FF,14,00,00,00,
327803,000001DB,false,Rx,0,8,8C,00,0A,6E,50,08,1A,FF,
328642,00000096,false,Rx,0,8,64,00,54,AA,01,FF,FF,FF,
329640,000001BB,false,Rx,0,8,FF,FF,00,FF,FF,FF,FF,FF,
329640,000000D9,false,Rx,0,8,1F,FE,00,10,00,F0,7F,CF,
330860,000000FA,false,Rx,0,8,00,14,00,E0,7F,01,0A,C4,
330861,000002AE,false,Rx,0,8,FF,00,FF,64,FF,AF,64,00,
334008,00000197,false,Rx,0,4,BE,02,FE,FC,00,00,00,00,
334008,000001B3,false,Rx,0,8,C4,12,00,0E,00,FF,FF,99,
335596,000001DF,false,Rx,0,8,00,00,00,00,DE,FF,FF,FF,
336644,00000199,false,Rx,0,6,C2,F3,E1,7E,00,20,00,00,
336645,0000019A,false,Rx,0,6,E4,F3,4A,7F,00,10,00,00,
336646,000002EC,false,Rx,0,8,F0,0C,00,00,FF,FF,07,00,
336646,000002F3,false,Rx,0,8,FF,FF,00,FF,FF,FF,FF,FF,
340402,000000D9,false,Rx,0,8,1E,F0,00,10,00,F0,7F,CF,
340403,000000A5,false,Rx,0,8,75,00,FF,F7,FF,00,00,C1,
340404,000000A7,false,Rx,0,7,3A,F0,FF,F0,FF,FF,0F,00,
340404,000000DC,false,Rx,0,6,37,00,22,D0,07,EE,00,00,
340405,00000095,false,Rx,0,8,64,68,96,00,00,F0,00,00,
341559,000001CE,false,Rx,0,8,64,68,96,00,00,F0,00,00,
341560,000001CF,false,Rx,0,8,64,68,96,00,00,F0,00,00,
341561,00000173,false,Rx,0,8,38,F1,00,02,20,00,D2,98,
341562,00000302,false,Rx,0,7,68,F3,B6,6F,01,00,00,00,
343604,000001A1,false,Rx,0,5,94,C9,00,00,81,00,00,00,
345612,00000083,false,Rx,0,8,FF,7F,FF,7F,FF,7F,FF,7F,
345613,00000254,false,Rx,0,8,FF,7F,FF,7F,FF,7F,FF,7F,
345614,0000019F,false,Rx,0,6,2A,F4,00,80,00,10,00,00,
348609,000002A5,false,Rx,0,2,FE,FE,00,00,00,00,00,00,
350604,00000385,false,Rx,0,8,FF,FC,FF,5E,F5,3F,FF,DE,
350605,000002BB,false,Rx,0,5,C1,F8,3F,00,F2,00,00,00,
350605,000000D9,false,Rx,0,8,43,F1,00,10,00,F0,7F,CF,
350606,000000FA,false,Rx,0,8,02,C0,08,00,C8,07,D0,D7,
351595,000002AE,false,Rx,0,8,FF,00,FF,64,FF,AF,64,00,
351596,00000201,false,Rx,0,8,DF,B8,11,C8,00,FF,F0,FF,
351596,000001B9,false,Rx,0,8,00,FF,FF,FF,FF,FF,FF,FF,
351597,0000029D,false,Rx,0,8,FF,FF,FF,FF,0F,FF,FF,FF,
352139,000002C4,false,Rx,0,8,00,00,00,FF,FF,00,00,0F,
353347,000002A7,false,Rx,0,5,C0,FD,FE,FF,14,00,00,00,
353349,0000008F,false,Rx,0,8,FF,FF,00,7D,F2,FF,FF,FF,
356647,00000199,false,Rx,0,6,A3,F5,E1,7E,00,20,00,00,
356649,0000019A,false,Rx,0,6,3E,F5,40,7F,00,10,00,00,
358594,00000314,false,Rx,0,5,50,80,1D,FF,FF,00,00,00,
358595,00000096,false,Rx,0,8,64,00,54,AA,01,FF,FF,FF,
359654,000001C0,false,Rx,0,8,6A,32,00,40,63,55,55,57,
359655,000000D9,false,Rx,0,8,A4,F2,00,10,00,F0,7F,CF,
359656,000000A5,false,Rx,0,8,28,01,FF,F7,FF,00,00,C1,
360881,000000A7,false,Rx,0,7,7C,F1,FF,F0,FF,FF,0F,00,
360883,000000DC,false,Rx,0,6,5D,01,22,D0,07,EE,00,00,
360883,0000026B,false,Rx,0,8,6C,13,FD,FF,FF,FF,FF,FF,
363623,000001A1,false,Rx,0,5,2E,CA,00,00,81,00,00,00,
363627,00000197,false,Rx,0,4,31,03,FE,FC,00,00,00,00,
365652,00000083,false,Rx,0,8,FF,7F,FF,7F,FF,7F,FF,7F,
365654,00000254,false,Rx,0,8,FF,7F,FF,7F,FF,7F,FF,7F,
366654,0000019F,false,Rx,0,6,EC,F6,FC,7F,00,10,00,00,
368211,000001DB,false,Rx,0,8,8C,00,0A,6E,50,08,1A,FF,
368213,000002E0,false,Rx,0,6,88,F8,75,40,24,FF,00,00,
368214,00000065,false,Rx,0,8,EE,85,00,03,FF,FF,FF,FF,
370454,000000D9,false,Rx,0,8,F9,F3,00,10,00,F0,7F,CF,
370456,000000FA,false,Rx,0,8,03,10,08,02,38,59,28,CA,
370458,000002AE,false,Rx,0,8,FF,00,FF,64,FF,AF,64,00,
371661,00000284,false,Rx,0,8,C8,80,0C,FF,FF,FF,FF,0F,
371664,000003AD,false,Rx,0,8,00,F0,FF,FF,FF,52,FF,FF,
371666,000001AE,false,Rx,0,3,07,65,1A,00,00,00,00,00,
371668,000001E4,false,Rx,0,8,63,04,61,61,11,11,11,11,
371670,000002EB,false,Rx,0,8,8E,F8,11,11,11,62,11,FF,
372692,00000540,false,Rx,0,8,40,40,00,00,00,00,01,00,
376677,00000199,false,Rx,0,6,77,F7,E1,7E,00,20,00,00,
376681,0000019A,false,Rx,0,6,EA,F7,40,7F,00,10,00,00,
378339,000005C0,false,Rx,0,8,29,FF,7F,00,FF,FF,FF,FF,
378342,00000346,false,Rx,0,4,D9,5E,21,FF,00,00,00,00,
379656,00000376,false,Rx,0,3,86,16,11,00,00,00,00,00,
379659,000000D9,false,Rx,0,8,77,F4,00,10,00,F0,7F,CF,
380655,000000A5,false,Rx,0,8,CF,02,FF,F7,FF,00,00,C1,
380659,000000A7,false,Rx,0,7,B6,F2,FF,F0,FF,FF,0F,00,
380661,000000DC,false,Rx,0,6,E3,02,22,D0,07,EE,00,00,
381721,00000163,false,Rx,0,8,C7,F7,04,25,13,15,04,F5,
381725,00000302,false,Rx,0,7,6D,F7,B6,6F,01,00,00,00,
383500,000001A1,false,Rx,0,5,B3,CB,00,00,81,00,00,00,
385659,00000083,false,Rx,0,8,FF,7F,FF,7F,FF,7F,FF,7F,
385663,00000254,false,Rx,0,8,FF,7F,FF,7F,FF,7F,FF,7F,
386665,0000019F,false,Rx,0,6,DD,F8,FE,7F,00,10,00,00,
386667,00000301,false,Rx,0,7,C7,C8,04,72,FF,FF,2F,00,
388354,0000012F,false,Rx,0,8,E1,7E,FA,DD,FF,FF,FF,00,
388357,00000096,false,Rx,0,8,64,00,54,AA,01,FF,FF,FF,
390455,000000D9,false,Rx,0,8,2A,F5,00,10,00,F0,7F,CF,
390458,000000FA,false,Rx,0,8,05,86,12,08,76,76,76,00,
390460,000002AE,false,Rx,0,8,FF,00,FF,64,FF,AF,64,00,
390462,000003E9,false,Rx,0,8,FF,FF,0F,FF,FF,FF,FF,FF,
391677,00000510,false,Rx,0,8,40,10,00,02,02,92,01,00,
391680,00000173,false,Rx,0,8,B6,F6,00,02,20,00,D2,98,
393745,0000008F,false,Rx,0,8,FF,FF,00,7D,F2,FF,FF,FF,
393748,00000197,false,Rx,0,4,BB,04,FE,FC,00,00,00,00,
394937,0000032E,false,Rx,0,8,57,C8,FF,8D,85,7F,00,20,
396696,00000199,false,Rx,0,6,61,F9,E1,7E,00,20,00,00,
396699,0000019A,false,Rx,0,6,2F,F9,45,7F,00,10,00,00,
398407,000000CA,false,Rx,0,8,07,23,00,00,00,00,FD,F7,
398410,0000037F,false,Rx,0,2,FF,F0,00,00,00,00,00,00,
399685,000001C0,false,Rx,0,8,37,33,00,40,63,55,55,57,
399688,000000D9,false,Rx,0,8,CD,F6,00,10,00,F0,7F,CF,
399689,000000A5,false,Rx,0,8,92,03,FF,F7,FF,00,00,C1,
400831,000000A7,false,Rx,0,7,F0,F3,FF,F0,FF,FF,0F,00,
400834,00000095,false,Rx,0,8,64,68,96,00,00,F0,00,00,
400836,000000DC,false,Rx,0,6,89,03,22,D0,07,EE,00,00,
400838,00000201,false,Rx,0,8,F3,B8,24,C8,00,FF,F0,FF,
400840,000001CE,false,Rx,0,8,64,68,96,00,00,F0,00,00,
401980,000001CF,false,Rx,0,8,64,68,96,00,00,F0,00,00,
401983,00000297,false,Rx,0,7,FF,FD,F0,E0,F0,F0,A8,00,
401986,000003B4,false,Rx,0,8,FF,FF,FC,FF,F8,F8,00,FF,
401988,000003FD,false,Rx,0,5,E2,02,20,FF,FF,00,00,00,
403517,000001A1,false,Rx,0,5,47,CC,00,00,81,00,00,00,
405674,00000083,false,Rx,0,8,FF,7F,FF,7F,FF,7F,FF,7F,
405677,00000254,false,Rx,0,8,FF,7F,FF,7F,FF,7F,FF,7F,
405681,0000019F,false,Rx,0,6,A0,FA,08,80,00,10,00,00,
408101,0000036E,false,Rx,0,5,A0,F6,FE,FF,14,00,00,00,
408104,000001DB,false,Rx,0,8,8C,00,0A,6E,50,08,1A,FF,
408107,0000003C,false,Rx,0,8,6B,A2,02,92,01,00,2A,FF,
410457,000000D9,false,Rx,0,8,90,F7,00,10,00,F0,7F,CF,
410460,000000FA,false,Rx,0,8,05,FD,FD,FD,FD,FD,FD,E9,
410463,000002AE,false,Rx,0,8,FF,00,FF,64,FF,AF,64,00,
410464,000001C8,false,Rx,0,8,00,00,00,00,F0,31,FF,FF,
411659,00000265,false,Rx,0,8,F1,66,88,13,70,30,FF,FF,
411663,00000340,false,Rx,0,2,F3,FF,00,00,00,00,00,00,
414826,0000042B,false,Rx,0,4,95,1F,72,30,00,00,00,00,
416691,00000199,false,Rx,0,6,B5,FB,E1,7E,00,20,00,00,
416695,0000019A,false,Rx,0,6,28,FB,40,7F,00,10,00,00,
418450,00000096,false,Rx,0,8,64,00,54,AA,01,FF,FF,FF,
418452,000002EB,false,Rx,0,8,D3,F9,11,11,11,62,11,FF,
418455,000001E4,false,Rx,0,8,3E,05,61,61,11,11,11,11,
420402,000000D9,false,Rx,0,8,CC,F8,00,10,00,F0,7F,CF,
420406,000000A5,false,Rx,0,8,1C,04,FF,F7,FF,00,00,C1,
420409,000000A7,false,Rx,0,7,3F,F4,FF,F0,FF,FF,0F,00,
420411,000000DC,false,Rx,0,6,82,04,22,D0,07,EE,00,00,
421707,00000302,false,Rx,0,7,62,FB,B6,6F,01,00,00,00,
423562,000001A1,false,Rx,0,5,DA,CD,00,00,81,00,00,00,
423565,00000197,false,Rx,0,4,34,05,FE,FC,00,00,00,00,
425625,00000083,false,Rx,0,8,FF,7F,FF,7F,FF,7F,FF,7F,
425628,00000254,false,Rx,0,8,FF,7F,FF,7F,FF,7F,FF,7F,
426695,0000019F,false,Rx,0,6,7A,FC,02,80,00,10,00,00,
428324,000005E0,false,Rx,0,8,11,03,00,05,00,00,C4,00,
430424,000000D9,false,Rx,0,8,91,F9,00,10,00,F0,7F,CF,
430429,000000FA,false,Rx,0,8,00,24,00,E0,7F,01,0A,C4,
430431,000002AE,false,Rx,0,8,FF,00,FF,64,FF,AF,64,00,
430434,0000030C,false,Rx,0,5,08,FC,FE,FF,14,00,00,00,
433390,000002A7,false,Rx,0,5,7A,FE,FE,FF,14,00,00,00,
433393,0000008F,false,Rx,0,8,FF,FF,00,7D,F2,FF,FF,FF,
434707,000001B3,false,Rx,0,8,C4,12,00,00,00,FF,FF,8B,
436676,00000199,false,Rx,0,6,D4,FD,E1,7E,00,20,00,00,
436679,0000019A,false,Rx,0,6,94,FD,3B,7F,00,10,00,00,
438330,00000349,false,Rx,0,5,FE,FF,FE,FF,FF,00,00,00,
439674,000001C0,false,Rx,0,8,B9,34,00,40,63,55,55,57,
439676,000000D9,false,Rx,0,8,76,FA,00,10,00,F0,7F,CF,
440751,000000A5,false,Rx,0,8,41,05,FF,F7,FF,00,00,C1,
440755,000000A7,false,Rx,0,7,79,F5,FF,F0,FF,FF,0F,00,
440757,000000C0,false,Rx,0,2,FB,40,00,00,00,00,00,00,
440758,000000DC,false,Rx,0,6,E8,05,22,D0,07,EE,00,00,
441832,00000173,false,Rx,0,8,50,FB,00,02,20,00,D2,98,
443513,000001A1,false,Rx,0,5,60,CE,00,00,81,00,00,00,
445619,00000083,false,Rx,0,8,FF,7F,FF,7F,FF,7F,FF,7F,
445622,00000254,false,Rx,0,8,FF,7F,FF,7F,FF,7F,FF,7F,
445624,00000232,false,Rx,0,8,0F,FF,F8,FF,FF,FF,FF,FF,
446622,0000019F,false,Rx,0,6,BC,FE,FE,7F,00,10,00,00,
448156,000001DB,false,Rx,0,8,8C,00,0A,6E,50,08,1A,FF,
448158,000001E1,false,Rx,0,6,0B,F2,00,FF,FF,FF,00,00,
448160,00000096,false,Rx,0,8,64,00,54,AA,01,FF,FF,FF,
450079,000002BB,false,Rx,0,5,5C,F9,3F,00,F2,00,00,00,
450083,000000D9,false,Rx,0,8,2B,FB,00,10,00,F0,7F,CF,
450086,000000FA,false,Rx,0,8,02,C0,08,00,C8,07,D0,D7,
451160,000002AE,false,Rx,0,8,FF,00,FF,64,FF,AF,64,00,
451164,00000201,false,Rx,0,8,06,B9,38,C8,00,FF,F0,FF,
451166,0000029D,false,Rx,0,8,FF,FF,FF,FF,0F,FF,FF,FF,
451168,000002C4,false,Rx,0,8,00,00,00,FF,FF,00,00,0F,
453925,00000197,false,Rx,0,4,B8,06,FE,FC,00,00,00,00,
456672,00000199,false,Rx,0,6,7C,F0,E1,7E,00,20,00,00,
456674,0000019A,false,Rx,0,6,89,F0,4F,7F,00,10,00,00,
460391,000000D9,false,Rx,0,8,A5,FC,00,10,00,F0,7F,CF,
460393,000000A5,false,Rx,0,8,A6,06,FF,F7,FF,00,00,C1,
460395,000000A7,false,Rx,0,7,B3,F6,FF,F0,FF,FF,0F,00,
460397,000000DC,false,Rx,0,6,56,06,22,D0,07,EE,00,00,
460399,00000095,false,Rx,0,8,64,68,96,00,00,F0,00,00,
461566,000001CE,false,Rx,0,8,64,68,96,00,00,F0,00,00,
461569,000001CF,false,Rx,0,8,64,68,96,00,00,F0,00,00,
461573,0000029C,false,Rx,0,8,FD,FF,0D,00,FD,E4,FF,FF,
461577,00000302,false,Rx,0,7,A2,F0,B6,6F,01,00,00,00,
463588,000001A1,false,Rx,0,5,95,C0,00,00,81,00,00,00,
465569,000003A1,false,Rx,0,8,00,01,00,03,00,C0,00,F0,
465576,00000083,false,Rx,0,8,FF,7F,FF,7F,FF,7F,FF,7F,
465578,00000254,false,Rx,0,8,FF,7F,FF,7F,FF,7F,FF,7F,
466684,0000019F,false,Rx,0,6,9C,F1,06,80,00,10,00,00,
468200,000002E0,false,Rx,0,6,E2,F9,75,40,24,FF,00,00,
468202,00000065,false,Rx,0,8,09,86,00,03,FF,FF,FF,FF,
469305,000002EB,false,Rx,0,8,34,FA,11,11,11,62,11,FF,
470455,000000D9,false,Rx,0,8,F8,FD,00,10,00,F0,7F,CF,
470458,000001AE,false,Rx,0,3,07,65,1A,00,00,00,00,00,
470460,000001E4,false,Rx,0,8,D9,06,61,61,11,11,11,11,
470461,00000145,false,Rx,0,3,C8,9F,F0,00,00,00,00,00,
470464,000002AE,false,Rx,0,8,FF,00,FF,64,FF,AF,64,00,
470466,000000FA,false,Rx,0,8,03,10,08,02,38,59,28,CA,
471663,00000284,false,Rx,0,8,C8,80,0C,FF,FF,FF,FF,0F,
473641,0000008F,false,Rx,0,8,FF,FF,00,7D,F2,FF,FF,FF,
476691,00000199,false,Rx,0,6,A8,F2,E1,7E,00,20,00,00,
476694,0000019A,false,Rx,0,6,E8,F2,3B,7F,00,10,00,00,
478290,000000CA,false,Rx,0,8,89,24,00,00,00,00,FD,F7,
478292,00000096,false,Rx,0,8,64,00,54,AA,01,FF,FF,FF,
478294,000001BA,false,Rx,0,8,FF,FF,FC,FF,FF,FF,51,F0,
479600,000001C0,false,Rx,0,8,E4,35,00,40,63,55,55,57,
479602,00000376,false,Rx,0,3,CA,17,11,00,00,00,00,00,
479603,000000D9,false,Rx,0,8,1F,FE,00,10,00,F0,7F,CF,
479603,000000A5,false,Rx,0,8,FB,07,FF,F7,FF,00,00,C1,
480852,000000A7,false,Rx,0,7,F5,F7,FF,F0,FF,FF,0F,00,
480854,000000DC,false,Rx,0,6,3C,07,22,D0,07,EE,00,00,
481824,00000163,false,Rx,0,8,F3,F2,04,25,13,15,04,F5,
483463,000001A1,false,Rx,0,5,08,C1,00,00,81,00,00,00,
483465,0000024A,false,Rx,0,8,02,01,00,00,00,00,F4,FF,
483466,00000197,false,Rx,0,4,37,07,FE,FC,00,00,00,00,
485608,00000083,false,Rx,0,8,FF,7F,FF,7F,FF,7F,FF,7F,
485610,00000254,false,Rx,0,8,FF,7F,FF,7F,FF,7F,FF,7F,
485611,00000293,false,Rx,0,5,30,A6,FE,FF,14,00,00,00,
486666,0000019F,false,Rx,0,6,06,F3,02,80,00,10,00,00,
488107,0000036F,false,Rx,0,5,F2,F7,FE,FF,14,00,00,00,
488109,000001DB,false,Rx,0,8,8C,00,0A,6E,50,08,1A,FF,
488109,0000012F,false,Rx,0,8,E0,70,FA,DD,FF,FF,FF,00,
490429,000000D9,false,Rx,0,8,1E,F0,00,10,00,F0,7F,CF,
490431,000000FA,false,Rx,0,8,05,86,12,08,76,76,76,00,
490431,000002AE,false,Rx,0,8,FF,00,FF,64,FF,AF,64,00,
491598,00000510,false,Rx,0,8,40,10,00,02,02,92,01,00,
491599,00000173,false,Rx,0,8,38,F1,00,02,20,00,D2,98,
495154,000000AB,false,Rx,0,8,17,F3,04,00,00,D0,FF,FF,
496669,00000199,false,Rx,0,6,C9,F4,E1,7E,00,20,00,00,
496669,0000019A,false,Rx,0,6,EF,F4,4A,7F,00,10,00,00,
496670,0000028E,false,Rx,0,5,EE,D6,FE,FF,14,00,00,00,
497677,00000276,false,Rx,0,8,C0,00,00,00,00,C0,FF,FF,
500325,000000D9,false,Rx,0,8,43,F1,00,10,00,F0,7F,CF,
500326,000000A5,false,Rx,0,8,A7,08,FF,F7,FF,00,00,C1,
500326,000000A7,false,Rx,0,7,30,F8,FF,F0,FF,FF,0F,00,
500327,000000DC,false,Rx,0,6,40,08,22,D0,07,EE,00,00,
500327,00000294,false,Rx,0,5,72,CE,FE,FF,14,00,00,00,
501446,00000201,false,Rx,0,8,1A,B9,4B,C8,00,FF,F0,FF,
501447,000003FD,false,Rx,0,5,7F,03,20,FF,FF,00,00,00,
501448,00000302,false,Rx,0,7,A7,F4,B6,6F,01,00,00,00,
503494,000001A1,false,Rx,0,5,B2,C2,00,00,81,00,00,00,
505642,00000083,false,Rx,0,8,FF,7F,FF,7F,FF,7F,FF,7F,
505642,00000254,false,Rx,0,8,FF,7F,FF,7F,FF,7F,FF,7F,
505643,0000019F,false,Rx,0,6,75,F5,FE,7F,00,10,00,00,
508386,0000003C,false,Rx,0,8,36,A3,02,92,01,00,2A,FF,
508387,00000096,false,Rx,0,8,64,00,54,AA,01,FF,FF,FF,
510402,000000D9,false,Rx,0,8,A4,F2,00,10,00,F0,7F,CF,
510403,000000FA,false,Rx,0,8,05,FD,FD,FD,FD,FD,FD,E9,
510403,000002AE,false,Rx,0,8,FF,00,FF,64,FF,AF,64,00,
510404,0000031C,false,Rx,0,8,FF,3F,FF,FF,09,00,40,FD,
511596,000002FA,false,Rx,0,8,FD,FF,FF,17,3B,17,3B,14,
511596,00000265,false,Rx,0,8,F1,66,88,13,70,30,FF,FF,
511597,0000038C,false,Rx,0,2,F7,FF,00,00,00,00,00,00,
513365,000002A7,false,Rx,0,5,8F,F0,FE,FF,14,00,00,00,
513366,000001C3,false,Rx,0,8,23,42,00,00,00,00,00,00,
513366,0000008F,false,Rx,0,8,FF,FF,00,7D,F2,FF,FF,FF,
513367,00000197,false,Rx,0,4,B1,08,FE,FC,00,00,00,00,
513367,000001DD,false,Rx,0,8,00,00,00,F0,FF,FF,FF,FF,
516122,0000021D,false,Rx,0,8,00,00,00,FF,FF,FF,FF,FF,
516123,00000203,false,Rx,0,8,97,82,00,FF,FF,FF,00,C0,
516123,00000199,false,Rx,0,6,1D,F6,E1,7E,00,20,00,00,
516123,0000019A,false,Rx,0,6,E8,F6,4F,7F,00,10,00,00,
518284,00000314,false,Rx,0,5,50,80,1D,FF,FF,00,00,00,
518284,000002EB,false,Rx,0,8,69,FB,11,11,11,62,11,FF,
518284,000001E4,false,Rx,0,8,84,07,61,61,11,11,11,11,
519633,000001C0,false,Rx,0,8,03,36,00,40,63,55,55,57,
519633,000000D9,false,Rx,0,8,F9,F3,00,10,00,F0,7F,CF,
519633,000000A5,false,Rx,0,8,FA,09,FF,F7,FF,00,00,C1,
520930,000000A7,false,Rx,0,7,76,F9,FF,F0,FF,FF,0F,00,
520930,00000095,false,Rx,0,8,64,68,96,00,00,F0,00,00,
520931,000000DC,false,Rx,0,6,2A,09,22,D0,07,EE,00,00,
520931,000001CE,false,Rx,0,8,64,68,96,00,00,F0,00,00,
520931,000001CF,false,Rx,0,8,64,68,96,00,00,F0,00,00,
522050,0000032B,false,Rx,0,8,BF,00,32,39,FF,FF,FF,FF,
523592,000001A1,false,Rx,0,5,2F,C3,00,00,81,00,00,00,
525631,00000083,false,Rx,0,8,FF,7F,FF,7F,FF,7F,FF,7F,
525632,00000254,false,Rx,0,8,FF,7F,FF,7F,FF,7F,FF,7F,
526626,0000019F,false,Rx,0,6,EE,F7,F3,7F,00,10,00,00,
528456,000001DB,false,Rx,0,8,8C,00,0A,6E,50,08,1A,FF,
529657,000001BB,false,Rx,0,8,FF,FF,00,FF,FF,FF,FF,FF,
529658,000000D9,false,Rx,0,8,77,F4,00,10,00,F0,7F,CF,
530875,000000FA,false,Rx,0,8,00,34,00,E0,7F,01,0A,C4,
530876,000002AE,false,Rx,0,8,FF,00,FF,64,FF,AF,64,00,
534643,000001B3,false,Rx,0,8,C4,12,00,01,00,FF,FF,8C,
536815,00000199,false,Rx,0,6,0B,F8,E1,7E,00,20,00,00,
536816,0000019A,false,Rx,0,6,2D,F8,4A,7F,00,10,00,00,
538616,00000096,false,Rx,0,8,64,00,54,AA,01,FF,FF,FF,
540405,000000D9,false,Rx,0,8,2A,F5,00,10,00,F0,7F,CF,
540405,000000A5,false,Rx,0,8,1D,0A,FF,F7,FF,00,00,C1,
540405,000000A7,false,Rx,0,7,BC,FA,FF,F0,FF,FF,0F,00,
540406,000000DC,false,Rx,0,6,94,0A,22,D0,07,EE,00,00,
541803,00000173,false,Rx,0,8,B6,F6,00,02,20,00,D2,98,
541803,00000302,false,Rx,0,7,A8,F8,B6,6F,01,00,00,00,
543826,000001A1,false,Rx,0,5,DB,C4,00,00,81,00,00,00,
543828,00000197,false,Rx,0,4,3E,09,FE,FC,00,00,00,00,
545666,00000083,false,Rx,0,8,FF,7F,FF,7F,FF,7F,FF,7F,
545667,00000254,false,Rx,0,8,FF,7F,FF,7F,FF,7F,FF,7F,
546669,0000019F,false,Rx,0,6,51,F9,05,80,00,10,00,00,
548735,000002A5,false,Rx,0,2,FE,FE,00,00,00,00,00,00,
550599,000002BB,false,Rx,0,5,E6,FA,3F,00,F2,00,00,00,
550600,000000D9,false,Rx,0,8,CD,F6,00,10,00,F0,7F,CF,
550600,000000FA,false,Rx,0,8,02,C0,08,00,C8,07,D0,D7,
550600,000002AE,false,Rx,0,8,FF,00,FF,64,FF,AF,64,00,
551595,00000201,false,Rx,0,8,2D,B9,5F,C8,00,FF,F0,FF,
551595,000002C4,false,Rx,0,8,00,00,00,FF,FF,00,00,0F,
551596,0000029D,false,Rx,0,8,FF,FF,FF,FF,0F,FF,FF,FF,
553890,0000008F,false,Rx,0,8,FF,FF,00,7D,F2,FF,FF,FF,
556677,00000199,false,Rx,0,6,64,FA,EB,7E,00,20,00,00,
556677,0000019A,false,Rx,0,6,91,FA,45,7F,00,10,00,00,
558598,000000CA,false,Rx,0,8,D4,25,00,00,00,00,FD,F7,
559661,000001C0,false,Rx,0,8,5E,37,00,40,63,55,55,57,
559661,000000D9,false,Rx,0,8,90,F7,00,10,00,F0,7F,CF,
561099,000000A5,false,Rx,0,8,40,0B,FF,F7,FF,00,00,C1,
561100,000000A7,false,Rx,0,7,FA,FB,FF,F0,FF,FF,0F,00,
561100,000000DC,false,Rx,0,6,FE,0B,22,D0,07,EE,00,00,
563613,000001A1,false,Rx,0,5,46,C5,00,00,81,00,00,00,
565655,00000083,false,Rx,0,8,FF,7F,FF,7F,FF,7F,FF,7F,
565656,00000254,false,Rx,0,8,FF,7F,FF,7F,FF,7F,FF,7F,
565656,00000296,false,Rx,0,5,D6,E7,FE,FF,14,00,00,00,
566650,0000019F,false,Rx,0,6,B0,FB,FB,7F,00,10,00,00,
568488,0000036E,false,Rx,0,5,3D,F7,FE,FF,14,00,00,00,
568489,000001DB,false,Rx,0,8,8C,00,0A,6E,50,08,1A,FF,
568489,00000065,false,Rx,0,8,54,87,00,03,FF,FF,FF,FF,
568490,00000096,false,Rx,0,8,64,00,54,AA,01,FF,FF,FF,
568490,000002E0,false,Rx,0,6,5C,FA,75,40,24,FF,00,00,
569355,000002EB,false,Rx,0,8,E7,FC,11,11,11,62,11,FF,
570599,000000D9,false,Rx,0,8,CC,F8,00,10,00,F0,7F,CF,
570601,000000FA,false,Rx,0,8,03,10,08,02,38,59,28,CA,
570601,000002AE,false,Rx,0,8,FF,00,FF,64,FF,AF,64,00,
570601,000001AE,false,Rx,0,3,07,65,1A,00,00,00,00,00,
571630,00000284,false,Rx,0,8,C8,80,0C,FF,FF,FF,FF,0F,
571631,000001E4,false,Rx,0,8,D8,08,61,61,11,11,11,11,
574085,00000197,false,Rx,0,4,B2,0A,FE,FC,00,00,00,00,
574086,0000019D,false,Rx,0,8,0A,3E,92,02,FF,FF,FF,FF,
575217,00000102,false,Rx,0,8,4C,92,F0,FF,FF,FF,FF,FF,
575218,00000105,false,Rx,0,8,B0,A2,00,F0,FF,FF,FF,FF,
576692,00000199,false,Rx,0,6,BE,FC,E1,7E,00,20,00,00,
576693,0000019A,false,Rx,0,6,23,FC,40,7F,00,10,00,00,
579628,00000376,false,Rx,0,3,69,18,11,00,00,00,00,00,
579629,000000D9,false,Rx,0,8,91,F9,00,10,00,F0,7F,CF,
579630,000000A5,false,Rx,0,8,CE,0C,FF,F7,FF,00,00,C1,
580913,000000A7,false,Rx,0,7,35,FC,FF,F0,FF,FF,0F,00,
580914,00000095,false,Rx,0,8,64,68,96,00,00,F0,00,00,
580915,000000DC,false,Rx,0,6,F5,0C,22,D0,07,EE,00,00,
580915,000001CE,false,Rx,0,8,64,68,96,00,00,F0,00,00,
580916,000001CF,false,Rx,0,8,64,68,96,00,00,F0,00,00,
582044,00000163,false,Rx,0,8,F2,FC,04,25,13,15,04,F5,
582045,00000302,false,Rx,0,7,AD,FC,B6,6F,01,00,00,00,
583597,000001A1,false,Rx,0,5,FC,C6,00,00,81,00,00,00,
585559,00000378,false,Rx,0,8,9B,F3,61,21,FF,10,FF,6F,
585559,00000083,false,Rx,0,8,FF,7F,FF,7F,FF,7F,FF,7F,
585560,00000254,false,Rx,0,8,FF,7F,FF,7F,FF,7F,FF,7F,
586675,0000019F,false,Rx,0,6,D1,FD,FB,7F,00,10,00,00,
586676,00000301,false,Rx,0,7,84,CD,04,72,FF,FF,2F,00,
588605,0000012F,false,Rx,0,8,BD,71,FA,DD,FF,FF,FF,00,
590609,000000D9,false,Rx,0,8,76,FA,00,10,00,F0,7F,CF,
590610,000000FA,false,Rx,0,8,05,86,12,08,76,76,76,00,
590611,000002AE,false,Rx,0,8,FF,00,FF,64,FF,AF,64,00,
590612,0000030C,false,Rx,0,5,95,FD,FE,FF,14,00,00,00,
591600,000003E9,false,Rx,0,8,FF,FF,0F,FF,FF,FF,FF,FF,
591602,00000510,false,Rx,0,8,40,10,00,02,02,92,01,00,
591602,00000173,false,Rx,0,8,50,FB,00,02,20,00,D2,98,
591604,00000200,false,Rx,0,8,00,00,84,FF,FF,00,FF,C0,
593546,000002A7,false,Rx,0,5,12,F1,FE,FF,14,00,00,00,
593547,0000008F,false,Rx,0,8,FF,FF,00,7D,F2,FF,FF,FF,
596695,00000199,false,Rx,0,6,6A,FE,E1,7E,00,20,00,00,
596697,0000019A,false,Rx,0,6,F7,FE,40,7F,00,10,00,00,
598510,00000096,false,Rx,0,8,64,00,54,AA,01,FF,FF,FF,
598511,0000037F,false,Rx,0,2,FF,F0,00,00,00,00,00,00,
599654,000001C0,false,Rx,0,8,02,38,00,40,63,55,55,57,
599655,000000D9,false,Rx,0,8,2B,FB,00,10,00,F0,7F,CF,
599656,000000A5,false,Rx,0,8,93,0D,FF,F7,FF,00,00,C1,
600859,000000A7,false,Rx,0,7,73,FD,FF,F0,FF,FF,0F,00,
600860,000000DC,false,Rx,0,6,9F,0D,22,D0,07,EE,00,00,
600861,00000297,false,Rx,0,7,35,FE,F0,E0,F0,F0,A8,00,
600862,00000201,false,Rx,0,8,41,B9,72,C8,00,FF,F0,FF,
600863,000003B4,false,Rx,0,8,FF,FF,FC,FF,F8,F8,00,FF,
601957,000003FD,false,Rx,0,5,8B,04,20,FF,FF,00,00,00,
603603,000001A1,false,Rx,0,5,61,C7,00,00,81,00,00,00,
603605,00000197,false,Rx,0,4,3D,0B,FE,FC,00,00,00,00,
605836,00000083,false,Rx,0,8,FF,7F,FF,7F,FF,7F,FF,7F,
605837,00000254,false,Rx,0,8,FF,7F,FF,7F,FF,7F,FF,7F,
605838,0000019F,false,Rx,0,6,4C,F0,05,80,00,10,00,00,
608821,000001DB,false,Rx,0,8,8C,00,0A,6E,50,08,1A,FF,
608823,0000003C,false,Rx,0,8,B8,A4,02,92,01,00,2A,FF,
608824,000005AC,false,Rx,0,8,40,C3,00,15,FF,FF,FF,FF,
610536,000000D9,false,Rx,0,8,A5,FC,00,10,00,F0,7F,CF,
610538,000002AE,false,Rx,0,8,FF,00,FF,64,FF,AF,64,00,
610539,000000FA,false,Rx,0,8,05,FD,FD,FD,FD,FD,FD,E9,
611494,000001C8,false,Rx,0,8,00,00,00,00,F0,31,FF,FF,
611496,00000265,false,Rx,0,8,F1,66,88,13,70,30,FF,FF,
611498,0000026B,false,Rx,0,8,E2,14,FD,FF,FF,FF,FF,FF,
611499,00000340,false,Rx,0,2,F3,FF,00,00,00,00,00,00,
614824,0000042B,false,Rx,0,4,95,1F,72,30,00,00,00,00,
616679,00000199,false,Rx,0,6,AD,F1,EB,7E,00,20,00,00,
616682,0000019A,false,Rx,0,6,30,F1,4A,7F,00,10,00,00,
619213,000002EB,false,Rx,0,8,BA,FD,11,11,11,62,11,FF,
619215,000001E4,false,Rx,0,8,85,09,61,61,11,11,11,11,
620411,000000D9,false,Rx,0,8,F8,FD,00,10,00,F0,7F,CF,
620414,000000A5,false,Rx,0,8,74,0E,FF,F7,FF,00,00,C1,
620415,000000A7,false,Rx,0,7,B9,FE,FF,F0,FF,FF,0F,00,
620419,000000DC,false,Rx,0,6,21,0E,22,D0,07,EE,00,00,
621712,00000302,false,Rx,0,7,E4,F1,B6,6F,01,00,00,00,
623564,000001A1,false,Rx,0,5,09,C8,00,00,81,00,00,00,
625663,00000083,false,Rx,0,8,FF,7F,FF,7F,FF,7F,FF,7F,
625667,00000254,false,Rx,0,8,FF,7F,FF,7F,FF,7F,FF,7F,
626709,0000019F,false,Rx,0,6,16,F2,F1,7F,00,10,00,00,
628367,000005E0,false,Rx,0,8,11,03,00,06,00,00,C4,00,
628369,00000096,false,Rx,0,8,64,00,54,AA,01,FF,FF,FF,
630480,000000D9,false,Rx,0,8,1F,FE,00,10,00,F0,7F,CF,
630483,000000FA,false,Rx,0,8,00,44,00,E0,7F,01,0A,C4,
630485,000002AE,false,Rx,0,8,FF,00,FF,64,FF,AF,64,00,
633826,0000008F,false,Rx,0,8,FF,FF,00,7D,F2,FF,FF,FF,
633829,00000197,false,Rx,0,4,B7,0C,FE,FC,00,00,00,00,
633831,000001B3,false,Rx,0,8,C4,12,00,02,00,FF,FF,8D,
636704,00000199,false,Rx,0,6,C2,F3,E1,7E,00,20,00,00,
636707,0000019A,false,Rx,0,6,8C,F3,45,7F,00,10,00,00,
638365,000000CA,false,Rx,0,8,33,26,00,00,00,00,FD,F7,
638368,00000349,false,Rx,0,5,FE,FF,FE,FF,FF,00,00,00,
639654,000001C0,false,Rx,0,8,5F,39,00,40,63,55,55,57,
639657,000000D9,false,Rx,0,8,1E,F0,00,10,00,F0,7F,CF,
639658,000000A5,false,Rx,0,8,75,00,FF,F7,FF,00,00,C1,
640731,000000C0,false,Rx,0,2,FC,40,00,00,00,00,00,00,
640734,000000A7,false,Rx,0,7,3A,F0,FF,F0,FF,FF,0F,00,
640736,00000095,false,Rx,0,8,64,68,96,00,00,F0,00,00,
640737,000000DC,false,Rx,0,6,37,00,22,D0,07,EE,00,00,
640740,000001CE,false,Rx,0,8,64,68,96,00,00,F0,00,00,
641910,000001CF,false,Rx,0,8,64,68,96,00,00,F0,00,00,
641913,00000173,false,Rx,0,8,38,F1,00,02,20,00,D2,98,
643501,000001A1,false,Rx,0,5,94,C9,00,00,81,00,00,00,
645720,00000083,false,Rx,0,8,FF,7F,FF,7F,FF,7F,FF,7F,
645722,00000254,false,Rx,0,8,FF,7F,FF,7F,FF,7F,FF,7F,
645724,0000019F,false,Rx,0,6,50,F4,F3,7F,00,10,00,00,
648129,0000036F,false,Rx,0,5,9A,F8,FE,FF,14,00,00,00,
648132,000001DB,false,Rx,0,8,8C,00,0A,6E,50,08,1A,FF,
648134,000001E1,false,Rx,0,6,61,F3,00,FF,FF,FF,00,00,
650140,000002BB,false,Rx,0,5,7B,FB,3F,00,F2,00,00,00,
650142,000000D9,false,Rx,0,8,43,F1,00,10,00,F0,7F,CF,
650144,000000FA,false,Rx,0,8,02,C0,08,00,C8,07,D0,D7,
650145,000002AE,false,Rx,0,8,FF,00,FF,64,FF,AF,64,00,
651369,00000201,false,Rx,0,8,54,B9,86,C8,00,FF,F0,FF,
651371,0000029D,false,Rx,0,8,FF,FF,FF,FF,0F,FF,FF,FF,
651373,000002C4,false,Rx,0,8,00,00,00,FF,FF,00,00,0F,
656680,00000199,false,Rx,0,6,A3,F5,E1,7E,00,20,00,00,
656683,0000019A,false,Rx,0,6,85,F5,4A,7F,00,10,00,00,
656685,00000081,false,Rx,0,8,06,10,00,06,06,05,05,FF,
658477,00000096,false,Rx,0,8,64,00,54,AA,01,FF,FF,FF,
660412,000000D9,false,Rx,0,8,A4,F2,00,10,00,F0,7F,CF,
660415,000000A5,false,Rx,0,8,28,01,FF,F7,FF,00,00,C1,
660417,000000A7,false,Rx,0,7,7C,F1,FF,F0,FF,FF,0F,00,
660418,000000DC,false,Rx,0,6,5D,01,22,D0,07,EE,00,00,
661724,00000302,false,Rx,0,7,E1,F5,B6,6F,01,00,00,00,
663589,000001A1,false,Rx,0,5,2E,CA,00,00,81,00,00,00,
663592,00000197,false,Rx,0,4,38,0D,FE,FC,00,00,00,00,
665537,000003A1,false,Rx,0,8,00,01,00,03,00,C0,00,F0,
665540,00000083,false,Rx,0,8,FF,7F,FF,7F,FF,7F,FF,7F,
665542,00000254,false,Rx,0,8,FF,7F,FF,7F,FF,7F,FF,7F,
666664,0000019F,false,Rx,0,6,56,F6,FF,7F,00,10,00,00,
668207,000002E0,false,Rx,0,6,36,FB,75,40,24,FF,00,00,
668211,00000065,false,Rx,0,8,08,88,00,03,FF,FF,FF,FF,
669307,000002EB,false,Rx,0,8,5D,FE,11,11,11,62,11,FF,
670453,000000D9,false,Rx,0,8,F9,F3,00,10,00,F0,7F,CF,
670455,000001AE,false,Rx,0,3,07,65,1A,00,00,00,00,00,
670457,000002AE,false,Rx,0,8,FF,00,FF,64,FF,AF,64,00,
670458,000001E4,false,Rx,0,8,62,0A,61,61,11,11,11,11,
671517,00000145,false,Rx,0,3,C8,9F,F0,00,00,00,00,00,
671520,00000284,false,Rx,0,8,C8,80,0C,FF,FF,FF,FF,0F,
671522,000000FA,false,Rx,0,8,03,10,08,02,38,59,28,CA,
672582,0000026C,false,Rx,0,8,79,8A,F1,FF,FF,FF,FF,FF,
672585,000002A7,false,Rx,0,5,A8,F2,FE,FF,14,00,00,00,
673653,0000008F,false,Rx,0,8,FF,FF,00,7D,F2,FF,FF,FF,
674727,00000412,false,Rx,0,4,03,50,00,00,00,00,00,00,
674730,00000414,false,Rx,0,4,03,54,00,00,00,00,00,00,
676678,00000199,false,Rx,0,6,CC,F7,EB,7E,00,20,00,00,
676682,0000019A,false,Rx,0,6,51,F7,4A,7F,00,10,00,00,
678484,00000314,false,Rx,0,5,50,80,1D,FF,FF,00,00,00,
678487,00000094,false,Rx,0,8,03,50,00,00,FF,FF,FF,FF,
679659,000001C0,false,Rx,0,8,B8,3A,00,40,63,55,55,57,
679664,00000376,false,Rx,0,3,25,19,11,00,00,00,00,00,
679667,000000D9,false,Rx,0,8,77,F4,00,10,00,F0,7F,CF,
680735,000000A5,false,Rx,0,8,CF,02,FF,F7,FF,00,00,C1,
680737,000000A7,false,Rx,0,7,B6,F2,FF,F0,FF,FF,0F,00,
680739,000000DC,false,Rx,0,6,E3,02,22,D0,07,EE,00,00,
681870,00000163,false,Rx,0,8,C7,F7,04,25,13,15,04,F5,
683513,000001A1,false,Rx,0,5,B3,CB,00,00,81,00,00,00,
685668,00000083,false,Rx,0,8,FF,7F,FF,7F,FF,7F,FF,7F,
685671,00000254,false,Rx,0,8,FF,7F,FF,7F,FF,7F,FF,7F,
686673,0000019F,false,Rx,0,6,75,F8,01,80,00,10,00,00,
688236,000001DB,false,Rx,0,8,8C,00,0A,6E,50,08,1A,FF,
688238,0000012F,false,Rx,0,8,5A,72,FA,DD,FF,FF,FF,00,
688241,00000096,false,Rx,0,8,64,00,54,AA,01,FF,FF,FF,
690454,000000D9,false,Rx,0,8,2A,F5,00,10,00,F0,7F,CF,
690457,000000FA,false,Rx,0,8,05,86,12,08,76,76,76,00,
690459,00000287,false,Rx,0,8,C1,0C,FE,F0,3D,FF,30,FD,
690460,000002AE,false,Rx,0,8,FF,00,FF,64,FF,AF,64,00,
691669,00000510,false,Rx,0,8,40,10,00,02,02,92,01,00,
691672,00000173,false,Rx,0,8,B6,F6,00,02,20,00,D2,98,
693980,00000197,false,Rx,0,4,B4,0E,FE,FC,00,00,00,00,
695244,000000AB,false,Rx,0,8,99,F4,04,00,00,D0,FF,FF,
696713,00000199,false,Rx,0,6,61,F9,E1,7E,00,20,00,00,
696715,0000019A,false,Rx,0,6,2F,F9,45,7F,00,10,00,00,
696717,00000276,false,Rx,0,8,C0,00,00,00,00,C0,FF,FF,
697978,0000043D,false,Rx,0,8,0A,D4,CF,68,51,1B,80,61,
697981,00000220,false,Rx,0,8,63,AE,E5,FF,FF,FF,FF,FF,
700407,000000D9,false,Rx,0,8,CD,F6,00,10,00,F0,7F,CF,
700410,000000A5,false,Rx,0,8,92,03,FF,F7,FF,00,00,C1,
700412,000000A7,false,Rx,0,7,F0,F3,FF,F0,FF,FF,0F,00,
700414,00000095,false,Rx,0,8,64,68,96,00,00,F0,00,00,
700416,000000DC,false,Rx,0,6,89,03,22,D0,07,EE,00,00,
701561,000001CE,false,Rx,0,8,64,68,96,00,00,F0,00,00,
701564,000001CF,false,Rx,0,8,64,68,96,00,00,F0,00,00,
701567,00000201,false,Rx,0,8,68,B9,99,C8,00,FF,F0,FF,
701570,00000302,false,Rx,0,7,EE,F9,B6,6F,01,00,00,00,
701573,000003FD,false,Rx,0,5,16,05,20,FF,FF,00,00,00,
703587,000001A1,false,Rx,0,5,47,CC,00,00,81,00,00,00,
705670,00000083,false,Rx,0,8,FF,7F,FF,7F,FF,7F,FF,7F,
705674,00000254,false,Rx,0,8,FF,7F,FF,7F,FF,7F,FF,7F,
705676,0000019F,false,Rx,0,6,55,FA,06,80,00,10,00,00,
708416,0000003C,false,Rx,0,8,E5,A5,02,92,01,00,2A,FF,
710457,000000D9,false,Rx,0,8,90,F7,00,10,00,F0,7F,CF,
710459,000000FA,false,Rx,0,8,05,FD,FD,FD,FD,FD,FD,E9,
710461,000002AE,false,Rx,0,8,FF,00,FF,64,FF,AF,64,00,
710464,0000031C,false,Rx,0,8,FF,3F,FF,FF,09,00,40,FD,
711673,00000265,false,Rx,0,8,F1,66,88,13,70,30,FF,FF,
713585,000001DD,false,Rx,0,8,00,00,00,F0,FF,FF,FF,FF,
713588,0000008F,false,Rx,0,8,FF,FF,00,7D,F2,FF,FF,FF,
713591,000001C3,false,Rx,0,8,7E,43,00,00,00,00,00,00,
716182,0000021D,false,Rx,0,8,00,00,00,FF,FF,FF,FF,FF,
716184,00000203,false,Rx,0,8,CA,83,00,FF,FF,FF,00,C0,
716186,00000199,false,Rx,0,6,B3,FB,D7,7E,00,20,00,00,
716188,0000019A,false,Rx,0,6,BB,FB,3F,7F,00,10,00,00,
718375,000000CA,false,Rx,0,8,6E,27,00,00,00,00,FD,F7,
718377,00000096,false,Rx,0,8,64,00,54,AA,01,FF,FF,FF,
718379,000001E4,false,Rx,0,8,3F,0B,61,61,11,11,11,11,
719676,000002EB,false,Rx,0,8,5C,F0,11,11,11,62,11,FF,
719682,000001C0,false,Rx,0,8,E5,3B,00,40,63,55,55,57,
719685,000000D9,false,Rx,0,8,CC,F8,00,10,00,F0,7F,CF,
720726,000000A5,false,Rx,0,8,1C,04,FF,F7,FF,00,00,C1,
720730,000000A7,false,Rx,0,7,3F,F4,FF,F0,FF,FF,0F,00,
720732,000000DC,false,Rx,0,6,82,04,22,D0,07,EE,00,00,
720733,0000032B,false,Rx,0,8,BF,00,32,39,FF,FF,FF,FF,
723561,000001A1,false,Rx,0,5,DA,CD,00,00,81,00,00,00,
723571,00000197,false,Rx,0,4,BD,00,FE,FC,00,00,00,00,
723573,00000384,false,Rx,0,8,FF,FF,F7,FF,FF,FF,FF,FF,
725667,00000083,false,Rx,0,8,FF,7F,FF,7F,FF,7F,FF,7F,
725670,00000254,false,Rx,0,8,FF,7F,FF,7F,FF,7F,FF,7F,
725672,000003AF,false,Rx,0,8,50,FD,26,FF,FF,FF,FF,FF,
726672,0000019F,false,Rx,0,6,E6,FC,0A,80,00,10,00,00,
728142,0000036E,false,Rx,0,5,55,F8,FE,FF,14,00,00,00,
728145,000001DB,false,Rx,0,8,8C,00,0A,6E,50,08,1A,FF,
729675,000001BB,false,Rx,0,8,FF,FF,00,FF,FF,FF,FF,FF,
729677,000000D9,false,Rx,0,8,91,F9,00,10,00,F0,7F,CF,
731120,000002AE,false,Rx,0,8,FF,00,FF,64,FF,AF,64,00,
731122,000000FA,false,Rx,0,8,00,54,00,E0,7F,01,0A,C4,
734621,000001B3,false,Rx,0,8,C4,12,00,03,00,FF,FF,8E,
736655,00000199,false,Rx,0,6,D4,FD,E1,7E,00,20,00,00,
736657,0000019A,false,Rx,0,6,94,FD,3B,7F,00,10,00,00,
740375,000000D9,false,Rx,0,8,76,FA,00,10,00,F0,7F,CF,
740376,000000A5,false,Rx,0,8,41,05,FF,F7,FF,00,00,C1,
740377,000002F4,false,Rx,0,2,00,00,00,00,00,00,00,00,
740378,000000A7,false,Rx,0,7,79,F5,FF,F0,FF,FF,0F,00,
740379,000000DC,false,Rx,0,6,E8,05,22,D0,07,EE,00,00,
741800,00000173,false,Rx,0,8,50,FB,00,02,20,00,D2,98,
741803,00000302,false,Rx,0,7,EB,FD,B6,6F,01,00,00,00,
743550,000001A1,false,Rx,0,5,60,CE,00,00,81,00,00,00,
745674,00000083,false,Rx,0,8,FF,7F,FF,7F,FF,7F,FF,7F,
745676,00000254,false,Rx,0,8,FF,7F,FF,7F,FF,7F,FF,7F,
746683,0000019F,false,Rx,0,6,9B,FE,FC,7F,00,10,00,00,
748308,000002A5,false,Rx,0,2,FE,FE,00,00,00,00,00,00,
748309,00000096,false,Rx,0,8,64,00,54,AA,01,FF,FF,FF,
750082,000002BB,false,Rx,0,5,8F,FC,3F,00,F2,00,00,00,
750083,000000D9,false,Rx,0,8,2B,FB,00,10,00,F0,7F,CF,
750084,000000FA,false,Rx,0,8,02,C0,08,00,C8,07,D0,D7,
751093,000002AE,false,Rx,0,8,FF,00,FF,64,FF,AF,64,00,
751094,00000201,false,Rx,0,8,7B,B9,AD,C8,00,FF,F0,FF,
751094,0000030C,false,Rx,0,5,2F,FE,FE,FF,14,00,00,00,
751095,0000029D,false,Rx,0,8,FF,FF,FF,FF,0F,FF,FF,FF,
751095,000002C4,false,Rx,0,8,00,00,00,FF,FF,00,00,0F,
753328,000002A7,false,Rx,0,5,35,F3,FE,FF,14,00,00,00,
753329,0000008F,false,Rx,0,8,FF,FF,00,7D,F2,FF,FF,FF,
753329,00000197,false,Rx,0,4,32,01,FE,FC,00,00,00,00,
756666,00000199,false,Rx,0,6,7A,F0,D7,7E,00,20,00,00,
756666,0000019A,false,Rx,0,6,E1,F0,40,7F,00,10,00,00,
759639,000001C0,false,Rx,0,8,6B,3C,00,40,63,55,55,57,
759640,000000D9,false,Rx,0,8,A5,FC,00,10,00,F0,7F,CF,
759640,000000A5,false,Rx,0,8,A6,06,FF,F7,FF,00,00,C1,
760865,000000A7,false,Rx,0,7,B3,F6,FF,F0,FF,FF,0F,00,
760865,000000DC,false,Rx,0,6,56,06,22,D0,07,EE,00,00,
760865,00000095,false,Rx,0,8,64,68,96,00,00,F0,00,00,
760866,000001CE,false,Rx,0,8,64,68,96,00,00,F0,00,00,
760866,000001CF,false,Rx,0,8,64,68,96,00,00,F0,00,00,
763443,000001A1,false,Rx,0,5,95,C0,00,00,81,00,00,00,
765672,00000083,false,Rx,0,8,FF,7F,FF,7F,FF,7F,FF,7F,
765673,00000254,false,Rx,0,8,FF,7F,FF,7F,FF,7F,FF,7F,
765673,0000019F,false,Rx,0,6,00,F1,0E,80,00,10,00,00,
768239,000001DB,false,Rx,0,8,8C,00,0A,6E,50,08,1A,FF,
768240,000002E0,false,Rx,0,6,3D,FC,75,40,24,FF,00,00,
768240,00000065,false,Rx,0,8,55,89,00,03,FF,FF,FF,FF,
770440,000000D9,false,Rx,0,8,F8,FD,00,10,00,F0,7F,CF,
770442,000000FA,false,Rx,0,8,03,10,08,02,38,59,28,CA,
770442,000002AE,false,Rx,0,8,FF,00,FF,64,FF,AF,64,00,
770442,000001AE,false,Rx,0,3,07,65,1A,00,00,00,00,00,
771464,000001E4,false,Rx,0,8,B1,0C,61,61,11,11,11,11,
771465,00000284,false,Rx,0,8,C8,80,0C,FF,FF,FF,FF,0F,
771465,000002EB,false,Rx,0,8,01,F1,11,11,11,62,11,FF,
776620,00000199,false,Rx,0,6,AE,F2,D7,7E,00,20,00,00,
776621,0000019A,false,Rx,0,6,5E,F2,54,7F,00,10,00,00,
778485,00000096,false,Rx,0,8,64,00,54,AA,01,FF,FF,FF,
779639,00000376,false,Rx,0,3,F1,1A,11,00,00,00,00,00,
779640,000000D9,false,Rx,0,8,1F,FE,00,10,00,F0,7F,CF,
779640,000000A5,false,Rx,0,8,FB,07,FF,F7,FF,00,00,C1,
780890,000000A7,false,Rx,0,7,F5,F7,FF,F0,FF,FF,0F,00,
780890,000000DC,false,Rx,0,6,3C,07,22,D0,07,EE,00,00,
782051,00000163,false,Rx,0,8,F3,F2,04,25,13,15,04,F5,
782052,00000302,false,Rx,0,7,2E,F2,B6,6F,01,00,00,00,
783613,000001A1,false,Rx,0,5,08,C1,00,00,81,00,00,00,
783613,00000197,false,Rx,0,4,BE,02,FE,FC,00,00,00,00,
785606,00000083,false,Rx,0,8,FF,7F,FF,7F,FF,7F,FF,7F,
785606,00000254,false,Rx,0,8,FF,7F,FF,7F,FF,7F,FF,7F,
786804,0000019F,false,Rx,0,6,89,F3,FF,7F,00,10,00,00,
786805,00000301,false,Rx,0,7,07,C3,04,72,FF,FF,2F,00,
788619,0000012F,false,Rx,0,8,07,73,FA,DD,FF,FF,FF,00,
790393,000000D9,false,Rx,0,8,1E,F0,00,10,00,F0,7F,CF,
790394,000000FA,false,Rx,0,8,05,86,12,08,76,76,76,00,
790395,000002AE,false,Rx,0,8,FF,00,FF,64,FF,AF,64,00,
790395,000003E9,false,Rx,0,8,FF,FF,0F,FF,FF,FF,FF,FF,
791587,00000510,false,Rx,0,8,40,10,00,02,02,92,01,00,
791588,00000173,false,Rx,0,8,38,F1,00,02,20,00,D2,98,
793726,0000008F,false,Rx,0,8,FF,FF,00,7D,F2,FF,FF,FF,
796645,00000199,false,Rx,0,6,C9,F4,E1,7E,00,20,00,00,
796645,0000019A,false,Rx,0,6,3C,F4,4F,7F,00,10,00,00,
798350,000000CA,false,Rx,0,8,32,28,00,00,00,00,FD,F7,
798350,0000037F,false,Rx,0,2,FF,F0,00,00,00,00,00,00,
799778,000001C0,false,Rx,0,8,36,3D,00,40,63,55,55,57,
799779,000000D9,false,Rx,0,8,43,F1,00,10,00,F0,7F,CF,
799780,000000A5,false,Rx,0,8,A7,08,FF,F7,FF,00,00,C1,
800883,000000A7,false,Rx,0,7,30,F8,FF,F0,FF,FF,0F,00,
800884,000000DC,false,Rx,0,6,40,08,22,D0,07,EE,00,00,
800884,00000297,false,Rx,0,7,B6,F0,F0,E0,F0,F0,A8,00,
800885,00000201,false,Rx,0,8,8F,B9,C0,C8,00,FF,F0,FF,
800885,000003B4,false,Rx,0,8,FF,FF,FC,FF,F8,F8,00,FF,
801990,000003FD,false,Rx,0,5,AC,06,20,FF,FF,00,00,00,
803619,000001A1,false,Rx,0,5,B2,C2,00,00,81,00,00,00,
805644,00000083,false,Rx,0,8,FF,7F,FF,7F,FF,7F,FF,7F,
805645,00000254,false,Rx,0,8,FF,7F,FF,7F,FF,7F,FF,7F,
805645,00000293,false,Rx,0,5,AD,A7,FE,FF,14,00,00,00,
806709,0000019F,false,Rx,0,6,DD,F5,01,80,00,10,00,00,
808612,0000036F,false,Rx,0,5,07,F9,FE,FF,14,00,00,00,
808613,000001DB,false,Rx,0,8,8C,00,0A,6E,50,08,1A,FF,
808614,0000003C,false,Rx,0,8,02,A6,02,92,01,00,2A,FF,
808614,00000096,false,Rx,0,8,64,00,54,AA,01,FF,FF,FF,
810616,000000D9,false,Rx,0,8,A4,F2,00,10,00,F0,7F,CF,
810617,000000FA,false,Rx,0,8,05,FD,FD,FD,FD,FD,FD,E9,
810617,000002AE,false,Rx,0,8,FF,00,FF,64,FF,AF,64,00,
810618,000001C8,false,Rx,0,8,00,00,00,00,F0,31,FF,FF,
811644,00000265,false,Rx,0,8,F1,66,88,13,70,30,FF,FF,
811644,00000340,false,Rx,0,2,F3,FF,00,00,00,00,00,00,
814243,00000197,false,Rx,0,4,31,03,FE,FC,00,00,00,00,
814244,0000042B,false,Rx,0,4,95,1F,72,30,00,00,00,00,
816633,00000199,false,Rx,0,6,1D,F6,E1,7E,00,20,00,00,
816634,0000019A,false,Rx,0,6,E8,F6,4F,7F,00,10,00,00,
816634,0000028E,false,Rx,0,5,73,D7,FE,FF,14,00,00,00,
818854,000002EB,false,Rx,0,8,E6,F2,11,11,11,62,11,FF,
818855,000001E4,false,Rx,0,8,EC,0D,61,61,11,11,11,11,
820598,000000D9,false,Rx,0,8,F9,F3,00,10,00,F0,7F,CF,
820598,000000A5,false,Rx,0,8,FA,09,FF,F7,FF,00,00,C1,
820599,000000A7,false,Rx,0,7,76,F9,FF,F0,FF,FF,0F,00,
820599,00000095,false,Rx,0,8,64,68,96,00,00,F0,00,00,
820599,000000DC,false,Rx,0,6,2A,09,22,D0,07,EE,00,00,
821619,000001CE,false,Rx,0,8,64,68,96,00,00,F0,00,00,
821620,000001CF,false,Rx,0,8,64,68,96,00,00,F0,00,00,
821621,00000294,false,Rx,0,5,87,C0,FE,FF,14,00,00,00,
821621,00000302,false,Rx,0,7,2B,F6,B6,6F,01,00,00,00,
823592,000001A1,false,Rx,0,5,2F,C3,00,00,81,00,00,00,
825688,00000083,false,Rx,0,8,FF,7F,FF,7F,FF,7F,FF,7F,
825688,00000254,false,Rx,0,8,FF,7F,FF,7F,FF,7F,FF,7F,
825689,0000019F,false,Rx,0,6,55,F7,F9,7F,00,10,00,00,
828547,000005E0,false,Rx,0,8,11,03,00,02,16,2C,C5,10,
830597,000000D9,false,Rx,0,8,77,F4,00,10,00,F0,7F,CF,
830597,000000FA,false,Rx,0,8,00,64,00,E0,7F,01,0A,C4,
830598,000002AE,false,Rx,0,8,FF,00,FF,64,FF,AF,64,00,
833512,000002A7,false,Rx,0,5,C1,F4,FE,FF,14,00,00,00,
833513,0000008F,false,Rx,0,8,FF,FF,00,7D,F2,FF,FF,FF,
834799,000001B3,false,Rx,0,8,C4,12,00,04,00,FF,FF,8F,
836638,00000199,false,Rx,0,6,B0,F8,EB,7E,00,20,00,00,
836639,0000019A,false,Rx,0,6,45,F8,45,7F,00,10,00,00,
838348,00000314,false,Rx,0,5,50,80,1D,FF,FF,00,00,00,
838349,00000096,false,Rx,0,8,64,00,54,AA,01,FF,FF,FF,
838350,00000349,false,Rx,0,5,FE,FF,FE,FF,FF,00,00,00,
839611,000001C0,false,Rx,0,8,D1,3E,00,40,63,55,55,57,
839612,000000D9,false,Rx,0,8,2A,F5,00,10,00,F0,7F,CF,
839613,000000A5,false,Rx,0,8,1D,0A,FF,F7,FF,00,00,C1,
840685,000000C0,false,Rx,0,2,FD,40,00,00,00,00,00,00,
840687,000000A7,false,Rx,0,7,BC,FA,FF,F0,FF,FF,0F,00,
840688,000000DC,false,Rx,0,6,94,0A,22,D0,07,EE,00,00,
841773,00000173,false,Rx,0,8,B6,F6,00,02,20,00,D2,98,
843602,000001A1,false,Rx,0,5,DB,C4,00,00,81,00,00,00,
843604,00000197,false,Rx,0,4,BB,04,FE,FC,00,00,00,00,
845665,00000083,false,Rx,0,8,FF,7F,FF,7F,FF,7F,FF,7F,
845666,00000254,false,Rx,0,8,FF,7F,FF,7F,FF,7F,FF,7F,
846696,0000019F,false,Rx,0,6,0D,F9,FD,7F,00,10,00,00,
848605,000001DB,false,Rx,0,8,8C,00,0A,6E,50,08,1A,FF,
848607,000001E1,false,Rx,0,6,6A,F4,00,FF,FF,FF,00,00,
849773,00000416,false,Rx,0,8,9A,00,00,80,11,02,62,F2,
849775,000002BB,false,Rx,0,5,12,FD,3F,00,F2,00,00,00,
849776,000000D9,false,Rx,0,8,CD,F6,00,10,00,F0,7F,CF,
851130,000002AE,false,Rx,0,8,FF,00,FF,64,FF,AF,64,00,
851133,00000201,false,Rx,0,8,A2,B9,D4,C8,00,FF,F0,FF,
851135,000002C4,false,Rx,0,8,00,00,00,FF,FF,00,00,0F,
851137,000000FA,false,Rx,0,8,02,C0,08,00,C8,07,D0,D7,
852451,0000029D,false,Rx,0,8,FF,FF,FF,FF,0F,FF,FF,FF,
856690,00000199,false,Rx,0,6,DF,FA,E1,7E,00,20,00,00,
856692,0000019A,false,Rx,0,6,91,FA,45,7F,00,10,00,00,
860654,000000D9,false,Rx,0,8,90,F7,00,10,00,F0,7F,CF,
860656,000000A5,false,Rx,0,8,40,0B,FF,F7,FF,00,00,C1,
860658,000000A7,false,Rx,0,7,FA,FB,FF,F0,FF,FF,0F,00,
860660,000000DC,false,Rx,0,6,FE,0B,22,D0,07,EE,00,00,
860662,0000026B,false,Rx,0,8,BF,15,FD,FF,FF,FF,FF,FF,
861711,00000302,false,Rx,0,7,24,FA,B6,6F,01,00,00,00,
863498,000001A1,false,Rx,0,5,46,C5,00,00,81,00,00,00,
865647,000003A1,false,Rx,0,8,00,01,00,03,00,C0,00,F0,
865650,00000083,false,Rx,0,8,FF,7F,FF,7F,FF,7F,FF,7F,
865652,00000254,false,Rx,0,8,FF,7F,FF,7F,FF,7F,FF,7F,
866681,0000019F,false,Rx,0,6,63,FB,FE,7F,00,10,00,00,
868215,000002E0,false,Rx,0,6,57,FD,75,40,24,FF,00,00,
868218,00000065,false,Rx,0,8,B2,8A,00,03,FF,FF,FF,FF,
868222,00000096,false,Rx,0,8,64,00,54,AA,01,FF,FF,FF,
869355,000002EB,false,Rx,0,8,BB,F3,11,11,11,62,11,FF,
870449,000000D9,false,Rx,0,8,CC,F8,00,10,00,F0,7F,CF,
870452,000001AE,false,Rx,0,3,07,65,1A,00,00,00,00,00,
870454,000001E4,false,Rx,0,8,0B,0E,61,61,11,11,11,11,
870456,00000145,false,Rx,0,3,C8,9F,F0,00,00,00,00,00,
870458,000002AE,false,Rx,0,8,FF,00,FF,64,FF,AF,64,00,
871536,00000284,false,Rx,0,8,C8,80,0C,FF,FF,FF,FF,0F,
871540,000003D8,false,Rx,0,8,CF,C9,FF,FF,FF,FF,FF,FF,
873809,0000008F,false,Rx,0,8,FF,FF,00,7D,F2,FF,FF,FF,
873812,00000197,false,Rx,0,4,34,05,FE,FC,00,00,00,00,
873813,0000019D,false,Rx,0,8,0A,3E,92,02,FF,FF,FF,FF,
874852,000002F0,false,Rx,0,5,75,D5,40,D0,00,00,00,00,
876682,00000199,false,Rx,0,6,BE,FC,E1,7E,00,20,00,00,
876686,0000019A,false,Rx,0,6,4B,FC,4F,7F,00,10,00,00,
878308,000000CA,false,Rx,0,8,6F,29,00,00,00,00,FD,F7,
878310,00000346,false,Rx,0,4,D0,50,21,FF,00,00,00,00,
878312,000005C0,false,Rx,0,8,F9,33,F1,FF,FF,FF,FF,FF,
878314,000005C0,false,Rx,0,8,FA,33,C1,FF,FC,CF,FF,C0,
879724,000001C0,false,Rx,0,8,D0,30,00,40,63,55,55,57,
879728,000002F7,false,Rx,0,6,02,9B,8A,09,11,F2,00,00,
879730,00000376,false,Rx,0,3,BD,1B,11,00,00,00,00,00,
879732,000000D9,false,Rx,0,8,91,F9,00,10,00,F0,7F,CF,
880687,000000A5,false,Rx,0,8,CE,0C,FF,F7,FF,00,00,C1,
880691,000000A7,false,Rx,0,7,35,FC,FF,F0,FF,FF,0F,00,
880693,000000DC,false,Rx,0,6,F5,0C,22,D0,07,EE,00,00,
881837,00000163,false,Rx,0,8,F2,FC,04,25,13,15,04,F5,
881841,000000FA,false,Rx,0,8,03,10,08,02,38,59,28,CA,
883511,000001A1,false,Rx,0,5,FC,C6,00,00,81,00,00,00,
885673,00000083,false,Rx,0,8,FF,7F,FF,7F,FF,7F,FF,7F,
885678,00000254,false,Rx,0,8,FF,7F,FF,7F,FF,7F,FF,7F,
885681,00000296,false,Rx,0,5,BE,E8,FE,FF,14,00,00,00,
885683,0000019F,false,Rx,0,6,9E,FD,F6,7F,00,10,00,00,
888100,0000036E,false,Rx,0,5,C8,F9,FE,FF,14,00,00,00,
888103,000001DB,false,Rx,0,8,8C,00,0A,6E,50,08,1A,FF,
888106,0000012F,false,Rx,0,8,89,74,FA,DD,FF,FF,FF,00,
890444,000000D9,false,Rx,0,8,76,FA,00,10,00,F0,7F,CF,
890446,000002AE,false,Rx,0,8,FF,00,FF,64,FF,AF,64,00,
890448,00000095,false,Rx,0,8,64,68,96,00,00,F0,00,00,
891651,000000FA,false,Rx,0,8,05,86,12,08,76,76,76,00,
891656,00000173,false,Rx,0,8,50,FB,00,02,20,00,D2,98,
891659,000001CE,false,Rx,0,8,64,68,96,00,00,F0,00,00,
891661,000001CF,false,Rx,0,8,64,68,96,00,00,F0,00,00,
891665,00000200,false,Rx,0,8,02,00,34,FF,FF,00,FF,C0,
892879,00000510,false,Rx,0,8,40,10,00,02,02,92,01,00,
895239,000000AB,false,Rx,0,8,C4,F5,04,00,00,D0,FF,FF,
896306,00000276,false,Rx,0,8,C0,00,00,00,00,C0,FF,FF,
896308,00000199,false,Rx,0,6,D1,FE,EB,7E,00,20,00,00,
896310,0000019A,false,Rx,0,6,F7,FE,40,7F,00,10,00,00,
898369,000001EE,false,Rx,0,2,00,FC,00,00,00,00,00,00,
898372,00000096,false,Rx,0,8,64,00,54,AA,01,FF,FF,FF,
900355,000000D9,false,Rx,0,8,2B,FB,00,10,00,F0,7F,CF,
900360,000000A5,false,Rx,0,8,93,0D,FF,F7,FF,00,00,C1,
900362,000000A7,false,Rx,0,7,73,FD,FF,F0,FF,FF,0F,00,
900365,000000DC,false,Rx,0,6,9F,0D,22,D0,07,EE,00,00,
900367,000003FD,false,Rx,0,5,31,07,20,FF,FF,00,00,00,
901506,00000201,false,Rx,0,8,B6,B9,E7,C8,00,FF,F0,FF,
901509,00000302,false,Rx,0,7,21,FE,B6,6F,01,00,00,00,
903575,000001A1,false,Rx,0,5,61,C7,00,00,81,00,00,00,
903579,00000197,false,Rx,0,4,B8,06,FE,FC,00,00,00,00,
905730,00000083,false,Rx,0,8,FF,7F,FF,7F,FF,7F,FF,7F,
905733,00000254,false,Rx,0,8,FF,7F,FF,7F,FF,7F,FF,7F,
906685,0000019F,false,Rx,0,6,03,F0,08,80,00,10,00,00,
908437,0000003C,false,Rx,0,8,5F,A7,02,92,01,00,2A,FF,
910468,000000D9,false,Rx,0,8,A5,FC,00,10,00,F0,7F,CF,
910470,000002AE,false,Rx,0,8,FF,00,FF,64,FF,AF,64,00,
910472,0000030C,false,Rx,0,5,DA,F0,FE,FF,14,00,00,00,
911572,000000FA,false,Rx,0,8,05,FD,FD,FD,FD,FD,FD,E9,
911575,00000265,false,Rx,0,8,F1,66,88,13,70,30,FF,FF,
911579,0000031C,false,Rx,0,8,FF,3F,FF,FF,09,00,40,FD,
913387,000002A7,false,Rx,0,5,5C,F5,FE,FF,14,00,00,00,
913390,000001C3,false,Rx,0,8,F0,44,00,00,00,00,00,00,
913392,0000008F,false,Rx,0,8,FF,FF,00,7D,F2,FF,FF,FF,
913394,000001DD,false,Rx,0,8,00,00,00,F0,FF,FF,FF,FF,
916186,0000021D,false,Rx,0,8,00,00,00,FF,FF,FF,FF,FF,
916188,00000203,false,Rx,0,8,44,84,00,FF,FF,FF,00,C0,
916190,00000199,false,Rx,0,6,16,F1,E1,7E,00,20,00,00,
916192,0000019A,false,Rx,0,6,58,F1,45,7F,00,10,00,00,
918854,000002EB,false,Rx,0,8,35,F4,11,11,11,62,11,FF,
918857,000001E4,false,Rx,0,8,0A,00,61,61,11,11,11,11,
918860,000001C0,false,Rx,0,8,8D,31,00,40,63,55,55,57,
920410,000000D9,false,Rx,0,8,F8,FD,00,10,00,F0,7F,CF,
920413,000000A5,false,Rx,0,8,74,0E,FF,F7,FF,00,00,C1,
920414,000000A7,false,Rx,0,7,B9,FE,FF,F0,FF,FF,0F,00,
920416,000000DC,false,Rx,0,6,21,0E,22,D0,07,EE,00,00,
921514,0000032B,false,Rx,0,8,BF,00,32,39,FF,FF,FF,FF,
923514,000001A1,false,Rx,0,5,09,C8,00,00,81,00,00,00,
925660,00000083,false,Rx,0,8,FF,7F,FF,7F,FF,7F,FF,7F,
925663,00000254,false,Rx,0,8,FF,7F,FF,7F,FF,7F,FF,7F,
926686,0000019F,false,Rx,0,6,C5,F2,F4,7F,00,10,00,00,
928234,000001DB,false,Rx,0,8,8C,00,0A,6E,50,08,1A,FF,
928236,00000096,false,Rx,0,8,64,00,54,AA,01,FF,FF,FF,
929688,000001BB,false,Rx,0,8,FF,FF,00,FF,FF,FF,FF,FF,
929692,000000D9,false,Rx,0,8,1F,FE,00,10,00,F0,7F,CF,
930822,000000FA,false,Rx,0,8,00,74,00,E0,7F,01,0A,C4,
930825,000002AE,false,Rx,0,8,FF,00,FF,64,FF,AF,64,00,
933922,00000197,false,Rx,0,4,37,07,FE,FC,00,00,00,00,
933924,000001B3,false,Rx,0,8,C4,12,00,05,00,FF,FF,90,
936665,00000199,false,Rx,0,6,A9,F3,F5,7E,00,20,00,00,
936668,0000019A,false,Rx,0,6,5F,F3,40,7F,00,10,00,00,
940333,000000D9,false,Rx,0,8,1E,F0,00,10,00,F0,7F,CF,
940336,000000A5,false,Rx,0,8,75,00,FF,F7,FF,00,00,C1,
940338,000000A7,false,Rx,0,7,3A,F0,FF,F0,FF,FF,0F,00,
940340,000000DC,false,Rx,0,6,37,00,22,D0,07,EE,00,00,
940342,00000095,false,Rx,0,8,64,68,96,00,00,F0,00,00,
941474,000001CE,false,Rx,0,8,64,68,96,00,00,F0,00,00,
941476,000001CF,false,Rx,0,8,64,68,96,00,00,F0,00,00,
941479,00000173,false,Rx,0,8,38,F1,00,02,20,00,D2,98,
941481,00000302,false,Rx,0,7,68,F3,B6,6F,01,00,00,00,
943475,000001A1,false,Rx,0,5,94,C9,00,00,81,00,00,00,
945655,00000083,false,Rx,0,8,FF,7F,FF,7F,FF,7F,FF,7F,
945659,00000254,false,Rx,0,8,FF,7F,FF,7F,FF,7F,FF,7F,
945661,0000019F,false,Rx,0,6,91,F4,0A,80,00,10,00,00,
948290,000002A5,false,Rx,0,2,FE,FE,00,00,00,00,00,00,
950097,000002BB,false,Rx,0,5,A8,FE,3F,00,F2,00,00,00,
950100,000000D9,false,Rx,0,8,43,F1,00,10,00,F0,7F,CF,
950102,000000FA,false,Rx,0,8,02,C0,08,00,C8,07,D0,D7,
950104,000002AE,false,Rx,0,8,FF,00,FF,64,FF,AF,64,00,
951313,00000201,false,Rx,0,8,C9,B9,FB,C8,00,FF,F0,FF,
951315,0000029D,false,Rx,0,8,FF,FF,FF,FF,0F,FF,FF,FF,
951317,000002C4,false,Rx,0,8,00,00,00,FF,FF,00,00,0F,
953650,0000008F,false,Rx,0,8,FF,FF,00,7D,F2,FF,FF,FF,
956649,00000199,false,Rx,0,6,A3,F5,E1,7E,00,20,00,00,
956651,0000019A,false,Rx,0,6,56,F5,4F,7F,00,10,00,00,
958304,000000CA,false,Rx,0,8,88,2A,00,00,00,00,FD,F7,
958308,00000096,false,Rx,0,8,64,00,54,AA,01,FF,FF,FF,
959646,000001C0,false,Rx,0,8,6A,32,00,40,63,55,55,57,
959649,000000D9,false,Rx,0,8,A4,F2,00,10,00,F0,7F,CF,
959651,000000A5,false,Rx,0,8,28,01,FF,F7,FF,00,00,C1,
960805,000000A7,false,Rx,0,7,7C,F1,FF,F0,FF,FF,0F,00,
960807,000000DC,false,Rx,0,6,5D,01,22,D0,07,EE,00,00,
963498,000001A1,false,Rx,0,5,2E,CA,00,00,81,00,00,00,
963501,00000197,false,Rx,0,4,B1,08,FE,FC,00,00,00,00,
965669,00000083,false,Rx,0,8,FF,7F,FF,7F,FF,7F,FF,7F,
965671,00000254,false,Rx,0,8,FF,7F,FF,7F,FF,7F,FF,7F,
965673,0000019F,false,Rx,0,6,B0,F6,04,80,00,10,00,00,
968079,0000036F,false,Rx,0,5,BD,FA,FE,FF,14,00,00,00,
968081,000001DB,false,Rx,0,8,8C,00,0A,6E,50,08,1A,FF,
968083,00000065,false,Rx,0,8,EF,8B,00,03,FF,FF,FF,FF,
968084,000002E0,false,Rx,0,6,E9,FE,75,40,24,FF,00,00,
969223,000002EB,false,Rx,0,8,68,F5,11,11,11,62,11,FF,
970368,000000D9,false,Rx,0,8,F9,F3,00,10,00,F0,7F,CF,
970371,000000FA,false,Rx,0,8,03,10,08,02,38,59,28,CA,
970373,000002AE,false,Rx,0,8,FF,00,FF,64,FF,AF,64,00,
971475,00000284,false,Rx,0,8,C8,80,0C,FF,FF,FF,FF,0F,
971477,000001AE,false,Rx,0,3,07,65,1A,00,00,00,00,00,
971479,000001E4,false,Rx,0,8,57,01,61,61,11,11,11,11,
976671,00000199,false,Rx,0,6,77,F7,E1,7E,00,20,00,00,
976674,0000019A,false,Rx,0,6,51,F7,4A,7F,00,10,00,00,
979600,00000376,false,Rx,0,3,44,1C,11,00,00,00,00,00,
979603,000000D9,false,Rx,0,8,77,F4,00,10,00,F0,7F,CF,
979605,000000A5,false,Rx,0,8,CF,02,FF,F7,FF,00,00,C1,
980788,000000A7,false,Rx,0,7,B6,F2,FF,F0,FF,FF,0F,00,
980791,000000DC,false,Rx,0,6,E3,02,22,D0,07,EE,00,00,
980793,00000163,false,Rx,0,8,5F,F7,04,25,13,15,06,F5,
981952,00000302,false,Rx,0,7,6D,F7,B6,6F,01,00,00,00,
982971,0000024A,false,Rx,0,8,02,01,00,00,00,00,F4,FF,
982973,000001A1,false,Rx,0,5,B3,CB,00,00,81,00,00,00,
985648,00000083,false,Rx,0,8,FF,7F,FF,7F,FF,7F,FF,7F,
985651,00000254,false,Rx,0,8,FF,7F,FF,7F,FF,7F,FF,7F,
986657,0000019F,false,Rx,0,6,66,F8,F4,7F,00,10,00,00,
986660,00000301,false,Rx,0,7,C7,C8,04,72,FF,FF,2F,00,
988370,0000012F,false,Rx,0,8,D4,75,FA,DD,FF,FF,FF,00,
988373,00000096,false,Rx,0,8,64,00,54,AA,01,FF,FF,FF,
989647,00000373,false,Rx,0,6,00,B0,09,FF,FF,FF,00,00,
989650,000000D9,false,Rx,0,8,2A,F5,00,10,00,F0,7F,CF,
990806,000000FA,false,Rx,0,8,05,86,12,08,76,76,76,00,
990808,000002AE,false,Rx,0,8,FF,00,FF,64,FF,AF,64,00,
990810,000003E9,false,Rx,0,8,FF,FF,0F,FF,FF,FF,FF,FF,
990811,00000510,false,Rx,0,8,40,10,00,02,02,92,01,00,
991846,00000173,false,Rx,0,8,B6,F6,00,02,20,00,D2,98,
993308,000002A7,false,Rx,0,5,E6,F6,FE,FF,14,00,00,00,
993311,0000008F,false,Rx,0,8,FF,FF,00,7D,F2,FF,FF,FF,
993313,00000197,false,Rx,0,4,3E,09,FE,FC,00,00,00,00,
996672,00000199,false,Rx,0,6,67,F9,D7,7E,00,20,00,00,
996674,0000019A,false,Rx,0,6,2F,F9,45,7F,00,10,00,00,
998295,00000314,false,Rx,0,5,50,80,1D,FF,FF,00,00,00,
998298,0000037F,false,Rx,0,2,FF,F0,00,00,00,00,00,00,
999686,000001C0,false,Rx,0,8,37,33,00,40,63,55,55,57,
999689,000000D9,false,Rx,0,8,CD,F6,00,10,00,F0,7F,CF,
999691,000000A5,false,Rx,0,8,92,03,FF,F7,FF,00,00,C1,
1000828,000000A7,false,Rx,0,7,F0,F3,FF,F0,FF,FF,0F,00,
1000832,00000095,false,Rx,0,8,64,68,96,00,00,F0,00,00,
1000835,000000DC,false,Rx,0,6,89,03,22,D0,07,EE,00,00,
1000837,00000201,false,Rx,0,8,DD,B9,0E,C9,00,FF,F0,FF,
1000839,000001CE,false,Rx,0,8,64,68,96,00,00,F0,00,00,
1001974,000001CF,false,Rx,0,8,64,68,96,00,00,F0,00,00,
1001977,00000297,false,Rx,0,7,F0,F1,F0,E0,F0,F0,A8,00,
1001981,000002AA,false,Rx,0,8,00,FF,FF,FF,FF,FF,FF,FF,
1001985,0000034B,false,Rx,0,8,F3,FF,FF,FF,FF,FF,FF,FF,
1001987,000003B4,false,Rx,0,8,FF,FF,FC,FF,F8,F8,00,FF,
1003130,000003FD,false,Rx,0,5,59,08,20,FF,FF,00,00,00,
1003134,000001A1,false,Rx,0,5,47,CC,00,00,81,00,00,00,
1005673,00000083,false,Rx,0,8,FF,7F,FF,7F,FF,7F,FF,7F,
1005676,00000254,false,Rx,0,8,FF,7F,FF,7F,FF,7F,FF,7F,
1005678,0000019F,false,Rx,0,6,47,FA,FA,7F,00,10,00,00,
1008179,000001DB,false,Rx,0,8,8C,00,0A,6E,50,08,1A,FF,
1008182,0000003C,false,Rx,0,8,03,A8,02,92,01,00,2A,FF,
1010384,000000D9,false,Rx,0,8,90,F7,00,10,00,F0,7F,CF,
1010388,000000FA,false,Rx,0,8,05,FD,FD,FD,FD,FD,FD,E9,
1010390,000002AE,false,Rx,0,8,FF,00,FF,64,FF,AF,64,00,
1010393,000001C8,false,Rx,0,8,00,00,00,00,F0,31,FF,FF,
1011666,00000540,false,Rx,0,8,40,40,00,00,00,00,01,00,
1011669,00000265,false,Rx,0,8,F1,66,88,13,70,30,FF,FF,
1011671,00000340,false,Rx,0,2,F3,FF,00,00,00,00,00,00,
1014774,0000042B,false,Rx,0,4,95,1F,72,30,00,00,00,00,
1016662,00000199,false,Rx,0,6,B5,FB,E1,7E,00,20,00,00,
1016664,0000019A,false,Rx,0,6,28,FB,40,7F,00,10,00,00,
1018405,00000096,false,Rx,0,8,64,00,54,AA,01,FF,FF,FF,
1018408,000002EB,false,Rx,0,8,8F,F6,11,11,11,62,11,FF,
1018410,000001E4,false,Rx,0,8,B0,02,61,61,11,11,11,11,
1020356,000000D9,false,Rx,0,8,CC,F8,00,10,00,F0,7F,CF,
1020359,000000A5,false,Rx,0,8,1C,04,FF,F7,FF,00,00,C1,
1020362,000000A7,false,Rx,0,7,3F,F4,FF,F0,FF,FF,0F,00,
1020365,000000DC,false,Rx,0,6,82,04,22,D0,07,EE,00,00,
1021725,0000032B,false,Rx,0,8,C0,00,32,39,FF,FF,FF,FF,
1021727,00000302,false,Rx,0,7,62,FB,B6,6F,01,00,00,00,
1023497,000001A1,false,Rx,0,5,DA,CD,00,00,81,00,00,00,
1023500,00000197,false,Rx,0,4,B2,0A,FE,FC,00,00,00,00,
1025647,00000083,false,Rx,0,8,FF,7F,FF,7F,FF,7F,FF,7F,
1025649,00000254,false,Rx,0,8,FF,7F,FF,7F,FF,7F,FF,7F,
1026658,0000019F,false,Rx,0,6,7A,FC,02,80,00,10,00,00,
1026661,000005E0,false,Rx,0,8,8C,01,00,00,00,00,00,FF,
1028350,000005E0,false,Rx,0,8,11,04,00,03,00,00,C4,00,
1028353,0000040F,false,Rx,0,4,28,2C,0C,F1,00,00,00,00,
1030429,000000D9,false,Rx,0,8,91,F9,00,10,00,F0,7F,CF,
1030431,000002AE,false,Rx,0,8,FF,00,FF,64,FF,AF,64,00,
1030433,000000FA,false,Rx,0,8,00,84,00,E0,7F,01,0A,C4,
1031487,00000350,false,Rx,0,8,FF,FF,FF,63,FF,FF,FF,FF,
1033797,0000008F,false,Rx,0,8,FF,FF,00,7D,F2,FF,FF,FF,
1033800,000001B3,false,Rx,0,8,C4,12,00,06,00,FF,FF,91,
1036668,00000199,false,Rx,0,6,D4,FD,E1,7E,00,20,00,00,
1036671,0000019A,false,Rx,0,6,F2,FD,4A,7F,00,10,00,00,
1038314,000000CA,false,Rx,0,8,D5,2B,00,00,00,00,FD,F7,
1038316,00000349,false,Rx,0,5,FE,FF,FE,FF,FF,00,00,00,
1039634,000001C0,false,Rx,0,8,B9,34,00,40,63,55,55,57,
1039635,00000371,false,Rx,0,5,50,41,32,50,FD,00,00,00,
1039636,000000D9,false,Rx,0,8,76,FA,00,10,00,F0,7F,CF,
1039637,000000A5,false,Rx,0,8,41,05,FF,F7,FF,00,00,C1,
1040690,000000C0,false,Rx,0,2,FE,40,00,00,00,00,00,00,
1040692,000000A7,false,Rx,0,7,79,F5,FF,F0,FF,FF,0F,00,
1040693,000000DC,false,Rx,0,6,E8,05,22,D0,07,EE,00,00,
1041760,00000173,false,Rx,0,8,50,FB,00,02,20,00,D2,98,
1043438,000001A1,false,Rx,0,5,60,CE,00,00,81,00,00,00,
1045638,00000083,false,Rx,0,8,FF,7F,FF,7F,FF,7F,FF,7F,
1045639,00000254,false,Rx,0,8,FF,7F,FF,7F,FF,7F,FF,7F,
1046647,0000019F,false,Rx,0,6,AC,FE,10,80,00,10,00,00,
1048060,0000036E,false,Rx,0,5,72,FA,FE,FF,14,00,00,00,
1048061,000001DB,false,Rx,0,8,8C,00,0A,6E,50,08,1A,FF,
1048062,00000096,false,Rx,0,8,64,00,54,AA,01,FF,FF,FF,
1048062,000001E1,false,Rx,0,6,00,F5,00,FF,FF,FF,00,00,
1050061,000002BB,false,Rx,0,5,5D,F0,3F,00,F2,00,00,00,
1050062,000000D9,false,Rx,0,8,2B,FB,00,10,00,F0,7F,CF,
1050063,000000FA,false,Rx,0,8,02,C0,08,00,C8,07,D0,D7,
1050064,000002AE,false,Rx,0,8,FF,00,FF,64,FF,AF,64,00,
1051290,00000201,false,Rx,0,8,F0,B9,22,C9,00,FF,F0,FF,
1051291,0000029D,false,Rx,0,8,FF,FF,FF,FF,0F,FF,FF,FF,
1051292,000002C4,false,Rx,0,8,00,00,00,FF,FF,00,00,0F,
1052350,00000308,false,Rx,0,8,FF,F1,FF,FF,FF,FF,FF,FF,
1053890,00000197,false,Rx,0,4,3D,0B,FE,FC,00,00,00,00,
1056644,00000199,false,Rx,0,6,7C,F0,E1,7E,00,20,00,00,
1056645,0000019A,false,Rx,0,6,E1,F0,40,7F,00,10,00,00,
1060311,000000D9,false,Rx,0,8,A5,FC,00,10,00,F0,7F,CF,
1060312,000000A5,false,Rx,0,8,A6,06,FF,F7,FF,00,00,C1,
1060312,000000A7,false,Rx,0,7,B3,F6,FF,F0,FF,FF,0F,00,
1060313,000000DC,false,Rx,0,6,56,06,22,D0,07,EE,00,00,
1060313,00000095,false,Rx,0,8,64,68,96,00,00,F0,00,00,
1061475,000001CE,false,Rx,0,8,64,68,96,00,00,F0,00,00,
1061476,000001CF,false,Rx,0,8,64,68,96,00,00,F0,00,00,
1061476,00000302,false,Rx,0,7,A2,F0,B6,6F,01,00,00,00,
1063507,000001A1,false,Rx,0,5,95,C0,00,00,81,00,00,00,
1065495,000003A1,false,Rx,0,8,00,01,00,03,00,C0,00,F0,
1065496,00000083,false,Rx,0,8,FF,7F,FF,7F,FF,7F,FF,7F,
1065497,00000254,false,Rx,0,8,FF,7F,FF,7F,FF,7F,FF,7F,
1066661,0000019F,false,Rx,0,6,BB,F1,04,80,00,10,00,00,
1068104,000002E0,false,Rx,0,6,FF,F0,75,40,24,FF,00,00,
1068105,00000065,false,Rx,0,8,61,8C,00,03,FF,FF,FF,FF,
1069200,000001E4,false,Rx,0,8,ED,03,61,61,11,11,11,11,
1070342,000000D9,false,Rx,0,8,F8,FD,00,10,00,F0,7F,CF,
1070342,000001AE,false,Rx,0,3,07,65,1A,00,00,00,00,00,
1070343,000000FA,false,Rx,0,8,03,10,08,02,38,59,28,CA,
1070343,0000030C,false,Rx,0,5,FA,F1,C3,01,15,00,00,00,
1070344,000002EB,false,Rx,0,8,D2,F7,11,11,11,62,11,FF,
1071404,00000145,false,Rx,0,3,C8,9F,F0,00,00,00,00,00,
1071404,00000284,false,Rx,0,8,C8,80,0C,FF,FF,FF,FF,0F,
1071405,000002AE,false,Rx,0,8,FF,00,FF,64,FF,AF,64,00,
1071405,00000032,false,Rx,0,8,53,FB,00,00,01,FC,FF,FF,
1072619,0000026C,false,Rx,0,8,24,8B,F1,FF,FF,FF,FF,FF,
1072620,000002A7,false,Rx,0,5,7B,F7,FE,FF,14,00,00,00,
1073620,0000008F,false,Rx,0,8,FF,FF,00,7D,F2,FF,FF,FF,
1075050,00000102,false,Rx,0,8,11,93,F0,FF,FF,FF,FF,FF,
1075051,00000105,false,Rx,0,8,ED,A3,00,F0,FF,FF,FF,FF,
1075051,00000328,false,Rx,0,6,B7,6C,D9,05,68,25,00,00,
1076631,00000199,false,Rx,0,6,A8,F2,E1,7E,00,20,00,00,
1076632,0000019A,false,Rx,0,6,E6,F2,45,7F,00,10,00,00,
1078471,00000096,false,Rx,0,8,64,00,54,AA,01,FF,FF,FF,
1079623,000001C0,false,Rx,0,8,E4,35,00,40,63,55,55,57,
1079624,00000376,false,Rx,0,3,08,1D,11,00,00,00,00,00,
1079624,000000D9,false,Rx,0,8,1F,FE,00,10,00,F0,7F,CF,
1079624,000000A5,false,Rx,0,8,FB,07,FF,F7,FF,00,00,C1,
1080842,000000A7,false,Rx,0,7,F5,F7,FF,F0,FF,FF,0F,00,
1080846,000000DC,false,Rx,0,6,3C,07,22,D0,07,EE,00,00,
1081983,00000163,false,Rx,0,8,F3,F2,04,25,13,15,04,F5,
1083516,000001A1,false,Rx,0,5,08,C1,00,00,81,00,00,00,
1083516,00000197,false,Rx,0,4,B7,0C,FE,FC,00,00,00,00,
1085498,00000378,false,Rx,0,8,15,F4,61,21,FF,10,FF,6F,
1085500,00000083,false,Rx,0,8,FF,7F,FF,7F,FF,7F,FF,7F,
1085501,00000254,false,Rx,0,8,FF,7F,FF,7F,FF,7F,FF,7F,
1086638,0000019F,false,Rx,0,6,33,F3,FC,7F,00,10,00,00,
1087648,000001DB,false,Rx,0,8,8C,00,0A,6E,50,08,1A,FF,
1087648,0000012F,false,Rx,0,8,33,76,FA,DD,FF,FF,FF,00,
1089730,000003CA,false,Rx,0,8,F4,60,60,FF,0A,36,FF,FF,
1089730,000000D9,false,Rx,0,8,1E,F0,00,10,00,F0,7F,CF,
1090907,000000FA,false,Rx,0,8,05,86,12,08,76,76,76,00,
1090907,000002AE,false,Rx,0,8,FF,00,FF,64,FF,AF,64,00,
1090908,00000510,false,Rx,0,8,40,10,00,02,02,92,01,00,
1090908,00000173,false,Rx,0,8,38,F1,00,02,20,00,D2,98,
1095163,000000AB,false,Rx,0,8,23,F6,04,00,00,D0,FF,FF,
1096615,00000276,false,Rx,0,8,C0,00,00,00,00,C0,FF,FF,
1096616,00000199,false,Rx,0,6,C9,F4,E1,7E,00,20,00,00,
1096616,0000019A,false,Rx,0,6,89,F4,3B,7F,00,10,00,00,
1097744,0000043D,false,Rx,0,8,0A,D4,CF,68,51,1B,80,61,
1097744,000002A6,false,Rx,0,2,00,B9,00,00,00,00,00,00,
1100421,000000D9,false,Rx,0,8,43,F1,00,10,00,F0,7F,CF,
1100422,000000A5,false,Rx,0,8,A7,08,FF,F7,FF,00,00,C1,
1100422,000000A7,false,Rx,0,7,30,F8,FF,F0,FF,FF,0F,00,
1100422,000000DC,false,Rx,0,6,40,08,22,D0,07,EE,00,00,
1100423,000003FD,false,Rx,0,5,C4,09,20,FF,FF,00,00,00,
1101424,00000201,false,Rx,0,8,04,BA,35,C9,00,FF,F0,FF,
1101424,00000302,false,Rx,0,7,A7,F4,B6,6F,01,00,00,00,
1103479,000001A1,false,Rx,0,5,B2,C2,00,00,81,00,00,00,
1105680,00000083,false,Rx,0,8,FF,7F,FF,7F,FF,7F,FF,7F,
1105681,00000254,false,Rx,0,8,FF,7F,FF,7F,FF,7F,FF,7F,
1106677,0000019F,false,Rx,0,6,1C,F5,F8,7F,00,10,00,00,
1108443,0000003C,false,Rx,0,8,5E,A9,02,92,01,00,2A,FF,
1108444,00000096,false,Rx,0,8,64,00,54,AA,01,FF,FF,FF,
1109725,000003AE,false,Rx,0,8,AD,2E,0B,00,10,00,00,10,
1109726,000000D9,false,Rx,0,8,A4,F2,00,10,00,F0,7F,CF,
1111650,000000FA,false,Rx,0,8,05,FD,FD,FD,FD,FD,FD,E9,
1111650,0000026B,false,Rx,0,8,58,16,FD,FF,FF,FF,FF,FF,
1111651,000002AE,false,Rx,0,8,FF,00,FF,64,FF,AF,64,00,
1111651,00000265,false,Rx,0,8,F1,66,88,13,70,30,FF,FF,
1111652,0000031C,false,Rx,0,8,FF,3F,FF,FF,09,00,40,FD,
1113628,000001DD,false,Rx,0,8,00,00,00,F0,FF,FF,FF,FF,
1113629,0000008F,false,Rx,0,8,FF,FF,00,7D,F2,FF,FF,FF,
1113629,00000197,false,Rx,0,4,38,0D,FE,FC,00,00,00,00,
1113630,000001C3,false,Rx,0,8,AD,45,00,00,00,00,00,00,
1115333,000003C0,false,Rx,0,8,01,44,D4,FD,FF,FF,FF,FF,
1115334,0000021D,false,Rx,0,8,00,00,00,FF,FF,FF,FF,FF,
1116499,00000203,false,Rx,0,8,19,85,00,FF,FF,FF,00,C0,
1116500,00000199,false,Rx,0,6,1D,F6,E1,7E,00,20,00,00,
1116500,0000019A,false,Rx,0,6,3B,F6,4A,7F,00,10,00,00,
1118288,000000CA,false,Rx,0,8,5B,2C,00,00,00,00,FD,F7,
1118289,000003D7,false,Rx,0,8,A9,04,4C,81,3C,8E,D1,14,
1118289,000001E4,false,Rx,0,8,63,04,61,61,11,11,11,11,
1119631,000001C0,false,Rx,0,8,03,36,00,40,63,55,55,57,
1119632,000002EB,false,Rx,0,8,8E,F8,11,11,11,62,11,FF,
1119632,000000D9,false,Rx,0,8,F9,F3,00,10,00,F0,7F,CF,
1120650,000000A5,false,Rx,0,8,FA,09,FF,F7,FF,00,00,C1,
1120651,000000A7,false,Rx,0,7,76,F9,FF,F0,FF,FF,0F,00,
1120651,00000095,false,Rx,0,8,64,68,96,00,00,F0,00,00,
1120651,000000DC,false,Rx,0,6,2A,09,22,D0,07,EE,00,00,
1120652,000001CE,false,Rx,0,8,64,68,96,00,00,F0,00,00,
1121755,000001CF,false,Rx,0,8,64,68,96,00,00,F0,00,00,
1121755,0000032B,false,Rx,0,8,C0,00,32,39,FF,FF,FF,FF,
1123419,000001A1,false,Rx,0,5,2F,C3,00,00,81,00,00,00,
1125633,00000083,false,Rx,0,8,FF,7F,FF,7F,FF,7F,FF,7F,
1125633,00000254,false,Rx,0,8,FF,7F,FF,7F,FF,7F,FF,7F,
1125633,00000293,false,Rx,0,5,C5,A8,FE,FF,14,00,00,00,
1125634,0000019F,false,Rx,0,6,08,F7,08,80,00,10,00,00,
1128059,0000036F,false,Rx,0,5,20,FB,FE,FF,14,00,00,00,
1128060,000001DB,false,Rx,0,8,8C,00,0A,6E,50,08,1A,FF,
1128061,000002CA,false,Rx,0,2,70,74,00,00,00,00,00,00,
1129885,000001BB,false,Rx,0,8,FF,FF,00,FF,FF,FF,FF,FF,
1129886,000000D9,false,Rx,0,8,77,F4,00,10,00,F0,7F,CF,
1129886,000000FA,false,Rx,0,8,00,94,00,E0,7F,01,0A,C4,
1131069,000002AE,false,Rx,0,8,FF,00,FF,64,FF,AF,64,00,
1131070,000004A5,false,Rx,0,8,FF,00,00,00,00,00,F0,FF,
1134700,000001B3,false,Rx,0,8,C4,12,00,07,00,FF,FF,92,
1136643,00000199,false,Rx,0,6,B0,F8,EB,7E,00,20,00,00,
1136644,0000019A,false,Rx,0,6,4B,F8,3B,7F,00,10,00,00,
1136644,0000028E,false,Rx,0,5,1B,D8,FE,FF,14,00,00,00,
1138428,00000096,false,Rx,0,8,64,00,54,AA,01,FF,FF,FF,
1138429,0000034A,false,Rx,0,8,E6,B3,70,FB,59,CE,89,26,
1140141,00000064,false,Rx,0,8,56,FE,F2,FF,FF,FF,FF,FF,
1140141,000000D9,false,Rx,0,8,2A,F5,00,10,00,F0,7F,CF,
1140142,000000A5,false,Rx,0,8,1D,0A,FF,F7,FF,00,00,C1,
1140142,000000A7,false,Rx,0,7,BC,FA,FF,F0,FF,FF,0F,00,
1140143,000000DC,false,Rx,0,6,94,0A,22,D0,07,EE,00,00,
1141257,00000294,false,Rx,0,5,1A,C1,FE,FF,14,00,00,00,
1141258,00000173,false,Rx,0,8,B6,F6,00,02,20,00,D2,98,
1141258,00000302,false,Rx,0,7,A8,F8,B6,6F,01,00,00,00,
1143452,000001A1,false,Rx,0,5,DB,C4,00,00,81,00,00,00,
1143452,00000197,false,Rx,0,4,B4,0E,FE,FC,00,00,00,00,
1145634,00000083,false,Rx,0,8,FF,7F,FF,7F,FF,7F,FF,7F,
1145635,00000254,false,Rx,0,8,FF,7F,FF,7F,FF,7F,FF,7F,
1145635,0000019F,false,Rx,0,6,90,F9,FC,7F,00,10,00,00,
1148257,000002A5,false,Rx,0,2,FE,FE,00,00,00,00,00,00,
1150068,000002BB,false,Rx,0,5,C0,F1,3F,00,F2,00,00,00,
1150068,000000D9,false,Rx,0,8,CD,F6,00,10,00,F0,7F,CF,
1150069,000000FA,false,Rx,0,8,02,C0,08,00,C8,07,D0,D7,
1150069,000002AE,false,Rx,0,8,FF,00,FF,64,FF,AF,64,00,
1151256,00000201,false,Rx,0,8,17,BA,49,C9,00,FF,F0,FF,
1151257,000002C4,false,Rx,0,8,00,00,00,FF,FF,00,00,0F,
1153330,000002A7,false,Rx,0,5,13,F8,FE,FF,14,00,00,00,
1153332,0000008F,false,Rx,0,8,FF,FF,00,7D,F2,FF,FF,FF,
1155496,0000029D,false,Rx,0,8,FF,FF,FF,FF,0F,FF,FF,FF,
1156740,00000199,false,Rx,0,6,DF,FA,E1,7E,00,20,00,00,
1156740,0000019A,false,Rx,0,6,91,FA,45,7F,00,10,00,00,
1158604,00000314,false,Rx,0,5,50,80,1D,FF,FF,00,00,00,
1158604,0000034C,false,Rx,0,8,76,00,00,00,AC,03,F0,FF,
1159636,000001C0,false,Rx,0,8,5E,37,00,40,63,55,55,57,
1159636,000000D9,false,Rx,0,8,90,F7,00,10,00,F0,7F,CF,
1159636,000000A5,false,Rx,0,8,40,0B,FF,F7,FF,00,00,C1,
1160793,000000A7,false,Rx,0,7,FA,FB,FF,F0,FF,FF,0F,00,
1160793,000000DC,false,Rx,0,6,FE,0B,22,D0,07,EE,00,00,
1163601,000001A1,false,Rx,0,5,46,C5,00,00,81,00,00,00,
1165650,00000083,false,Rx,0,8,FF,7F,FF,7F,FF,7F,FF,7F,
1165651,00000254,false,Rx,0,8,FF,7F,FF,7F,FF,7F,FF,7F,
1165651,0000019F,false,Rx,0,6,18,FB,04,80,00,10,00,00,
1168239,000001DB,false,Rx,0,8,8C,00,0A,6E,50,08,1A,FF,
1168240,000002E0,false,Rx,0,6,95,F1,75,40,24,FF,00,00,
1168240,00000065,false,Rx,0,8,3C,8D,00,03,FF,FF,FF,FF,
1168240,00000096,false,Rx,0,8,64,00,54,AA,01,FF,FF,FF,
1169355,000002EB,false,Rx,0,8,D3,F9,11,11,11,62,11,FF,
1170437,000000D9,false,Rx,0,8,CC,F8,00,10,00,F0,7F,CF,
1170438,000000FA,false,Rx,0,8,03,10,08,02,38,59,28,CA,
1170438,000002AE,false,Rx,0,8,FF,00,FF,64,FF,AF,64,00,
1170438,000001AE,false,Rx,0,3,07,65,1A,00,00,00,00,00,
1171557,00000284,false,Rx,0,8,C8,80,0C,FF,FF,FF,FF,0F,
1171558,000003D2,false,Rx,0,2,F3,FF,00,00,00,00,00,00,
1171558,00000426,false,Rx,0,4,FF,FF,FF,F0,00,00,00,00,
1171559,000001E4,false,Rx,0,8,3E,05,61,61,11,11,11,11,
1171559,00000438,false,Rx,0,4,FF,FF,FF,F0,00,00,00,00,
1173961,00000197,false,Rx,0,4,BD,00,FE,FC,00,00,00,00,
1173961,0000019D,false,Rx,0,8,0A,3E,92,02,FF,FF,FF,FF,
1176775,00000199,false,Rx,0,6,05,FC,EB,7E,00,20,00,00,
1176776,0000019A,false,Rx,0,6,FE,FC,3B,7F,00,10,00,00,
1178462,000001D6,false,Rx,0,3,C0,C0,FF,00,00,00,00,00,
1179661,00000376,false,Rx,0,3,DC,1E,11,00,00,00,00,00,
1179662,00000138,false,Rx,0,8,FF,FF,FF,FF,FF,FF,FF,FF,
1179662,000000D9,false,Rx,0,8,91,F9,00,10,00,F0,7F,CF,
1180779,000000A5,false,Rx,0,8,CE,0C,FF,F7,FF,00,00,C1,
1180779,00000095,false,Rx,0,8,64,68,96,00,00,F0,00,00,
1180779,000000A7,false,Rx,0,7,35,FC,FF,F0,FF,FF,0F,00,
1180780,000000DC,false,Rx,0,6,F5,0C,22,D0,07,EE,00,00,
1180780,000001CE,false,Rx,0,8,64,68,96,00,00,F0,00,00,
1182608,000001CF,false,Rx,0,8,64,68,96,00,00,F0,00,00,
1182622,00000163,false,Rx,0,8,F2,FC,04,25,13,15,04,F5,
1182622,00000302,false,Rx,0,7,AD,FC,B6,6F,01,00,00,00,
1183594,000001A1,false,Rx,0,5,FC,C6,00,00,81,00,00,00,
1185677,00000083,false,Rx,0,8,FF,7F,FF,7F,FF,7F,FF,7F,
1185678,00000254,false,Rx,0,8,FF,7F,FF,7F,FF,7F,FF,7F,
1186656,0000019F,false,Rx,0,6,4C,FD,FA,7F,00,10,00,00,
1186656,00000301,false,Rx,0,7,84,CD,04,72,FF,FF,2F,00,
1188584,0000012F,false,Rx,0,8,6E,77,FA,DD,FF,FF,FF,00,
1190480,000003F9,false,Rx,0,8,BE,F2,00,73,3E,30,33,00,
1190481,000000D9,false,Rx,0,8,76,FA,00,10,00,F0,7F,CF,
1191606,000002AE,false,Rx,0,8,FF,00,FF,64,FF,AF,64,00,
1191607,000003E9,false,Rx,0,8,FF,FF,0F,FF,FF,FF,FF,FF,
1191607,00000173,false,Rx,0,8,50,FB,00,02,20,00,D2,98,
1191608,000000FA,false,Rx,0,8,05,86,12,08,76,76,76,00,
1191608,00000287,false,Rx,0,8,C1,0C,FE,F0,3D,FF,30,FD,
1192636,00000200,false,Rx,0,8,01,00,74,FF,FF,00,FF,C0,
1192636,00000510,false,Rx,0,8,40,10,00,02,02,92,01,00,
1193822,0000008F,false,Rx,0,8,FF,FF,00,7D,F2,FF,FF,FF,
1196719,00000199,false,Rx,0,6,6A,FE,E1,7E,00,20,00,00,
1196720,0000019A,false,Rx,0,6,24,FE,45,7F,00,10,00,00,
1198401,000000C8,false,Rx,0,8,70,FF,FF,FF,FF,FF,FF,FF,
1198401,000000CA,false,Rx,0,8,06,2D,00,00,00,00,FD,F7,
1198402,00000096,false,Rx,0,8,64,00,54,AA,01,FF,FF,FF,
1198402,0000037F,false,Rx,0,2,FF,F0,00,00,00,00,00,00,
1199777,000001C0,false,Rx,0,8,02,38,00,40,63,55,55,57,
1199778,000000D9,false,Rx,0,8,2B,FB,00,10,00,F0,7F,CF,
1199778,000000A5,false,Rx,0,8,93,0D,FF,F7,FF,00,00,C1,
1200874,0000006E,false,Rx,0,8,00,14,09,17,09,00,00,FF,
1200874,000000A7,false,Rx,0,7,73,FD,FF,F0,FF,FF,0F,00,
1200875,000000DC,false,Rx,0,6,9F,0D,22,D0,07,EE,00,00,
1200875,0000006F,false,Rx,0,8,08,14,09,40,CF,4B,3B,FC,
1200876,00000201,false,Rx,0,8,2B,BA,5C,C9,00,FF,F0,FF,
1202004,00000297,false,Rx,0,7,3A,F2,F0,E0,F0,F0,A8,00,
1202005,000003B4,false,Rx,0,8,FF,FF,FC,FF,F8,F8,00,FF,
1202006,000003FD,false,Rx,0,5,7E,0A,20,FF,FF,00,00,00,
1202006,000007C1,false,Rx,0,8,0A,10,00,0C,FF,04,01,00,
1203458,000001A1,false,Rx,0,5,61,C7,00,00,81,00,00,00,
1203459,00000197,false,Rx,0,4,32,01,FE,FC,00,00,00,00,
1205632,00000083,false,Rx,0,8,FF,7F,FF,7F,FF,7F,FF,7F,
1205633,00000254,false,Rx,0,8,FF,7F,FF,7F,FF,7F,FF,7F,
1205634,00000296,false,Rx,0,5,23,E9,FE,FF,14,00,00,00,
1206736,0000019F,false,Rx,0,6,D1,F0,04,80,00,10,00,00,
1208440,0000036E,false,Rx,0,5,8B,FB,BD,03,15,00,00,00,
1208440,000001DB,false,Rx,0,8,8C,00,0A,6E,50,08,1A,FF,
1208441,0000003C,false,Rx,0,8,B9,AA,02,92,01,00,2A,FF,
1209706,000004AB,false,Rx,0,6,84,03,FD,FF,F2,F2,00,00,
1209707,000000D9,false,Rx,0,8,A5,FC,00,10,00,F0,7F,CF,
1211605,000000FA,false,Rx,0,8,05,FD,FD,FD,FD,FD,FD,E9,
1211606,000002AE,false,Rx,0,8,FF,00,FF,64,FF,AF,64,00,
1211607,000001C8,false,Rx,0,8,00,00,00,00,F0,31,FF,FF,
1211608,00000265,false,Rx,0,8,F1,66,88,13,70,30,FF,FF,
1212593,00000340,false,Rx,0,2,F3,FF,00,00,00,00,00,00,
1214808,0000042B,false,Rx,0,4,95,1F,72,30,00,00,00,00,
1216694,00000199,false,Rx,0,6,16,F1,E1,7E,00,20,00,00,
1216695,0000019A,false,Rx,0,6,56,F1,3B,7F,00,10,00,00,
1218866,000002EB,false,Rx,0,8,34,FA,11,11,11,62,11,FF,
1218867,000001E4,false,Rx,0,8,D9,06,61,61,11,11,11,11,
1220586,000000D9,false,Rx,0,8,F8,FD,00,10,00,F0,7F,CF,
1220587,000000A5,false,Rx,0,8,74,0E,FF,F7,FF,00,00,C1,
1220588,000000A7,false,Rx,0,7,B9,FE,FF,F0,FF,FF,0F,00,
1220589,000000DC,false,Rx,0,6,21,0E,22,D0,07,EE,00,00,
1220589,000002D8,false,Rx,0,8,FD,FF,FF,FF,22,22,12,80,
1221857,000001BC,false,Rx,0,6,FF,FF,F0,FF,FF,FF,00,00,
1221858,00000302,false,Rx,0,7,E4,F1,B6,6F,01,00,00,00,
1221859,0000031B,false,Rx,0,6,FF,FF,F0,FF,FF,FF,00,00,
1223546,000001A1,false,Rx,0,5,09,C8,00,00,81,00,00,00,
1223547,00000384,false,Rx,0,8,FF,FF,F7,FF,FF,FF,FF,FF,
1225649,00000083,false,Rx,0,8,FF,7F,FF,7F,FF,7F,FF,7F,
1225650,00000254,false,Rx,0,8,FF,7F,FF,7F,FF,7F,FF,7F,
1226657,0000019F,false,Rx,0,6,22,F2,06,80,00,10,00,00,
1228562,00000096,false,Rx,0,8,64,00,54,AA,01,FF,FF,FF,
1228563,000005E0,false,Rx,0,8,11,03,00,07,00,00,C4,00,
1230451,000000D9,false,Rx,0,8,1F,FE,00,10,00,F0,7F,CF,
1230452,000002AE,false,Rx,0,8,FF,00,FF,64,FF,AF,64,00,
1230454,0000030C,false,Rx,0,5,FD,F2,FE,FF,14,00,00,00,
1232620,000000FA,false,Rx,0,8,00,A4,00,E0,7F,01,0A,C4,
1233625,000002A7,false,Rx,0,5,8E,F9,FE,FF,14,00,00,00,
1233627,0000008F,false,Rx,0,8,FF,FF,00,7D,F2,FF,FF,FF,
1233629,00000197,false,Rx,0,4,BE,02,FE,FC,00,00,00,00,
1234652,000001B3,false,Rx,0,8,C4,12,00,08,00,FF,FF,93,
1236660,00000199,false,Rx,0,6,C2,F3,E1,7E,00,20,00,00,
1236662,0000019A,false,Rx,0,6,8C,F3,45,7F,00,10,00,00,
1238649,00000349,false,Rx,0,5,FE,FF,FE,FF,FF,00,00,00,
1239686,000001C0,false,Rx,0,8,5F,39,00,40,63,55,55,57,
1239689,000000B4,false,Rx,0,4,EE,4F,3B,1F,00,00,00,00,
1240915,000000B6,false,Rx,0,8,E3,35,00,FF,FF,FF,FF,FF,
1240917,000000B7,false,Rx,0,8,3F,00,00,00,FF,FF,FF,FF,
1240919,000000A5,false,Rx,0,8,75,00,FF,F7,FF,00,00,C1,
1240921,000000A7,false,Rx,0,7,3A,F0,FF,F0,FF,FF,0F,00,
1240923,000000C0,false,Rx,0,2,F0,40,00,00,00,00,00,00,
1242279,000000D9,false,Rx,0,8,1E,F0,00,10,00,F0,7F,CF,
1242281,00000095,false,Rx,0,8,64,68,96,00,00,F0,00,00,
1242284,000000DC,false,Rx,0,6,37,00,22,D0,07,EE,00,00,
1242285,000001CE,false,Rx,0,8,64,68,96,00,00,F0,00,00,
1242287,00000173,false,Rx,0,8,38,F1,00,02,20,00,D2,98,
1243521,000001CF,false,Rx,0,8,64,68,96,00,00,F0,00,00,
1243525,000002F4,false,Rx,0,2,00,00,00,00,00,00,00,00,
1243527,00000347,false,Rx,0,8,38,4A,F8,2A,FC,FF,F8,FF,
1243530,000001A1,false,Rx,0,5,94,C9,00,00,81,00,00,00,
1245706,00000083,false,Rx,0,8,FF,7F,FF,7F,FF,7F,FF,7F,
1245709,00000254,false,Rx,0,8,FF,7F,FF,7F,FF,7F,FF,7F,
1245711,0000019F,false,Rx,0,6,64,F4,04,80,00,10,00,00,
1248341,000001DB,false,Rx,0,8,8C,00,0A,6E,50,08,1A,FF,
1248344,000001E1,false,Rx,0,6,BE,F6,00,FF,FF,FF,00,00,
1250642,000002BB,false,Rx,0,5,7A,F2,3F,00,F2,00,00,00,
1250645,000000D9,false,Rx,0,8,43,F1,00,10,00,F0,7F,CF,
1250647,000000FA,false,Rx,0,8,02,C0,08,00,C8,07,D0,D7,
1250649,000002AE,false,Rx,0,8,FF,00,FF,64,FF,AF,64,00,
1251636,00000201,false,Rx,0,8,3E,BA,70,C9,00,FF,F0,FF,
1251638,0000029D,false,Rx,0,8,FF,FF,FF,FF,0F,FF,FF,FF,
1251640,000002C4,false,Rx,0,8,00,00,00,FF,FF,00,00,0F,
1256749,00000199,false,Rx,0,6,A3,F5,E1,7E,00,20,00,00,
1256752,0000019A,false,Rx,0,6,85,F5,4A,7F,00,10,00,00,
1258481,00000096,false,Rx,0,8,64,00,54,AA,01,FF,FF,FF,
1260647,000000D9,false,Rx,0,8,A4,F2,00,10,00,F0,7F,CF,
1260652,000000A5,false,Rx,0,8,28,01,FF,F7,FF,00,00,C1,
1260657,000000A7,false,Rx,0,7,7C,F1,FF,F0,FF,FF,0F,00,
1260659,000000DC,false,Rx,0,6,5D,01,22,D0,07,EE,00,00,
1261773,00000302,false,Rx,0,7,E1,F5,B6,6F,01,00,00,00,
1263516,000001A1,false,Rx,0,5,2E,CA,00,00,81,00,00,00,
1263519,00000197,false,Rx,0,4,31,03,FE,FC,00,00,00,00,
1265858,000003A1,false,Rx,0,8,00,01,00,03,00,C0,00,F0,
1265861,00000083,false,Rx,0,8,FF,7F,FF,7F,FF,7F,FF,7F,
1265863,00000254,false,Rx,0,8,FF,7F,FF,7F,FF,7F,FF,7F,
1266727,0000019F,false,Rx,0,6,B0,F6,04,80,00,10,00,00,
1268401,000002E0,false,Rx,0,6,2B,F2,75,40,24,FF,00,00,
1268404,00000065,false,Rx,0,8,DB,8E,00,03,FF,FF,FF,FF,
1269522,000001E4,false,Rx,0,8,84,07,61,61,11,11,11,11,
1270654,000000D9,false,Rx,0,8,F9,F3,00,10,00,F0,7F,CF,
1270657,000000FA,false,Rx,0,8,03,10,08,02,38,59,28,CA,
1270660,00000145,false,Rx,0,3,C8,9F,F0,00,00,00,00,00,
1270663,000001AE,false,Rx,0,3,07,65,1A,00,00,00,00,00,
